Sample in Buffer	Sample in Window	pufout	DataPort[1]	DataPort[2]	DataPort[3]	DataPort[4]	DataPort[5]	DataPort[6]	DataPort[7]	DataPort[8]	DataPort[9]	DataPort[10]	DataPort[11]	DataPort[12]	DataPort[13]	DataPort[14]	DataPort[15]	DataPort[16]	DataPort[17]	DataPort[18]	DataPort[19]	DataPort[20]	DataPort[21]	DataPort[22]	DataPort[23]	DataPort[24]	mux1_out	DataPort[26]	DataPort[27]	DataPort[28]	DataPort[29]	DataPort[30]	DataPort[31]	DataPort[32]	DataPort[33]	DataPort[34]	DataPort[35]	DataPort[36]	DataPort[37]	clockcounter_out	counter1_out	counter2_out
0	0	0	0	1	0	0	1	0	0	0	0	0	1	1	1	0	1	0	1	0	0	0	0	0	1	1	1	0	0	0	0	0	0	0	0	0	0	0	0	000	C12	C15	
1	1	1	0	1	0	0	1	0	0	0	0	0	1	1	1	1	0	1	0	0	0	0	0	0	1	1	1	0	0	0	0	0	0	0	0	0	0	0	0	000	C12	C0B	
2	2	1	1	1	0	0	1	0	0	0	0	0	1	1	0	1	1	1	0	0	0	0	0	0	1	1	0	0	0	0	0	0	0	0	0	0	0	0	0	000	C13	C0E	
3	3	1	0	1	0	0	1	0	0	0	0	0	1	1	0	1	0	1	0	0	0	0	0	0	1	1	0	0	0	0	0	0	0	0	0	0	0	0	0	000	C12	C0A	
4	4	1	0	1	0	0	1	0	0	0	0	0	1	1	1	0	1	0	0	0	0	0	0	0	1	1	0	0	0	0	0	0	0	0	0	0	0	0	0	000	C12	C05	
5	5	1	0	1	0	0	1	0	0	0	0	0	1	1	1	1	1	1	1	1	1	1	1	1	0	1	1	0	0	0	0	0	0	0	0	0	0	0	0	000	C12	BFF	
6	6	0	0	1	0	0	1	0	0	0	0	0	1	1	0	1	1	0	1	0	0	0	0	0	1	1	1	0	0	0	0	0	0	0	0	0	0	0	0	000	C12	C16	
7	7	0	0	1	0	0	1	0	0	0	0	0	1	1	1	0	1	1	1	0	0	0	0	0	1	1	0	0	0	0	0	0	0	0	0	0	0	0	0	000	C12	C1D	
8	8	1	0	1	0	0	1	0	0	0	0	0	1	1	1	1	0	1	1	1	1	1	1	1	0	1	1	0	0	0	0	0	0	0	0	0	0	0	0	000	C12	BFB	
9	9	0	0	1	1	1	0	0	0	0	0	0	1	1	1	1	1	1	0	0	0	0	0	0	1	1	0	0	0	0	0	0	0	0	0	0	0	0	0	000	C0E	C0F	
10	10	0	0	1	1	1	0	0	0	0	0	0	1	1	1	0	1	0	1	0	0	0	0	0	1	1	1	0	0	0	0	0	0	0	0	0	0	0	0	000	C0E	C15	
11	11	0	1	1	1	1	0	0	0	0	0	0	1	1	1	1	0	0	1	1	0	0	0	0	1	1	0	0	0	0	0	0	0	0	0	0	0	0	0	000	C0F	C33	
12	12	0	0	1	1	1	0	0	0	0	0	0	1	1	0	0	0	1	0	1	0	0	0	0	1	1	0	0	0	0	0	0	0	0	0	0	0	0	0	000	C0E	C28	
13	13	1	0	1	1	1	0	0	0	0	0	0	1	1	1	0	1	1	0	0	0	0	0	0	1	1	0	0	0	0	0	0	0	0	0	0	0	0	0	000	C0E	C0D	
14	14	1	1	0	1	1	1	1	0	0	0	0	1	1	1	0	1	1	1	1	1	1	1	1	0	1	1	0	0	0	0	0	0	0	0	0	0	0	0	000	C3D	BFD	
15	15	0	0	1	1	1	0	0	0	0	0	0	1	1	1	0	1	0	1	0	0	0	0	0	1	1	1	0	0	0	0	0	0	0	0	0	0	0	0	000	C0E	C15	
16	16	1	1	1	1	1	0	0	0	0	0	0	1	1	0	1	0	1	0	0	0	0	0	0	1	1	1	0	0	0	0	0	0	0	0	0	0	0	0	000	C0F	C0A	
17	17	1	0	1	1	1	0	0	0	0	0	0	1	1	0	0	1	1	0	0	0	0	0	0	1	1	1	0	0	0	0	0	0	0	0	0	0	0	0	000	C0E	C0C	
18	18	1	0	1	1	1	0	0	0	0	0	0	1	1	0	1	0	1	0	0	0	0	0	0	1	1	1	0	0	0	0	0	0	0	0	0	0	0	0	000	C0E	C0A	
19	19	1	1	1	1	1	0	0	0	0	0	0	1	1	1	0	1	0	0	0	0	0	0	0	1	1	1	0	0	0	0	0	0	0	0	0	0	0	0	000	C0F	C05	
20	20	1	0	1	1	1	0	0	0	0	0	0	1	1	1	1	1	1	1	1	1	1	1	1	0	1	1	0	0	0	0	0	0	0	0	0	0	0	0	000	C0E	BFF	
21	21	0	0	1	1	1	0	0	0	0	0	0	1	1	0	1	1	0	1	0	0	0	0	0	1	1	1	0	0	0	0	0	0	0	0	0	0	0	0	000	C0E	C16	
22	22	0	0	1	1	1	0	0	0	0	0	0	1	1	1	0	1	1	1	0	0	0	0	0	1	1	1	0	0	0	0	0	0	0	0	0	0	0	0	000	C0E	C1D	
23	23	1	0	1	1	1	0	0	0	0	0	0	1	1	1	1	0	1	1	1	1	1	1	1	0	1	0	0	0	0	0	0	0	0	0	0	0	0	0	000	C0E	BFB	
24	24	1	1	0	1	0	1	0	0	0	0	0	1	1	1	1	1	1	0	0	0	0	0	0	1	1	1	0	0	0	0	0	0	0	0	0	0	0	0	000	C15	C0F	
25	25	0	1	0	1	0	1	0	0	0	0	0	1	1	0	1	1	0	1	0	0	0	0	0	1	1	0	0	0	0	0	0	0	0	0	0	0	0	0	000	C15	C16	
26	26	0	1	0	1	0	1	0	0	0	0	0	1	1	1	1	0	0	1	1	0	0	0	0	1	1	0	0	0	0	0	0	0	0	0	0	0	0	0	000	C15	C33	
27	27	0	1	0	1	0	1	0	0	0	0	0	1	1	0	0	0	1	0	1	0	0	0	0	1	1	0	0	0	0	0	0	0	0	0	0	0	0	0	000	C15	C28	
28	28	1	1	0	1	0	1	0	0	0	0	0	1	1	1	0	1	1	0	0	0	0	0	0	1	1	1	0	0	0	0	0	0	0	0	0	0	0	0	000	C15	C0D	
29	29	1	1	0	1	0	1	0	0	0	0	0	1	1	1	0	1	1	1	1	1	1	1	1	0	1	0	0	0	0	0	0	0	0	0	0	0	0	0	000	C15	BFD	
30	30	0	1	0	1	0	1	0	0	0	0	0	1	1	0	0	1	0	1	0	0	0	0	0	1	1	1	0	0	0	0	0	0	0	0	0	0	0	0	000	C15	C14	
31	31	1	1	0	1	0	1	0	0	0	0	0	1	1	1	1	0	1	0	0	0	0	0	0	1	1	0	0	0	0	0	0	0	0	0	0	0	0	0	000	C15	C0B	
32	32	1	1	0	1	0	1	0	0	0	0	0	1	1	0	0	1	1	0	0	0	0	0	0	1	1	0	0	0	0	0	0	0	0	0	0	0	0	0	000	C15	C0C	
33	33	1	1	0	1	0	1	0	0	0	0	0	1	1	0	1	0	1	0	0	0	0	0	0	1	1	1	0	0	0	0	0	0	0	0	0	0	0	0	000	C15	C0A	
34	34	1	1	0	1	0	1	0	0	0	0	0	1	1	1	0	1	0	0	0	0	0	0	0	1	1	0	0	0	0	0	0	0	0	0	0	0	0	0	000	C15	C05	
35	35	1	1	0	1	0	1	0	0	0	0	0	1	1	1	1	1	0	1	0	1	1	1	0	1	1	0	0	0	0	0	0	0	0	0	0	0	0	0	000	C15	DD7	
36	36	0	0	1	1	0	1	0	0	0	0	0	1	1	1	1	1	1	1	0	0	0	0	0	1	1	0	0	0	0	0	0	0	0	0	0	0	0	0	000	C16	C1F	
37	37	0	1	0	1	0	1	0	0	0	0	0	1	1	1	0	1	1	1	0	0	0	0	0	1	1	1	0	0	0	0	0	0	0	0	0	0	0	0	000	C15	C1D	
38	38	1	1	0	1	0	1	0	0	0	0	0	1	1	1	1	0	1	1	1	1	1	1	1	0	1	0	0	0	0	0	0	0	0	0	0	0	0	0	000	C15	BFB	
39	39	1	0	0	1	0	1	1	0	0	0	0	1	1	1	1	1	1	0	0	0	0	0	0	1	1	0	0	0	0	0	0	0	0	0	0	0	0	0	000	C34	C0F	
40	40	1	1	1	0	0	1	1	0	0	0	0	1	1	1	0	1	0	1	0	0	0	0	0	1	1	0	0	0	0	0	0	0	0	0	0	0	0	0	000	C33	C15	
41	41	0	1	1	0	0	1	1	0	0	0	0	1	1	0	0	1	0	1	1	0	0	0	0	1	1	0	0	0	0	0	0	0	0	0	0	0	0	0	000	C33	C34	
42	42	1	1	1	0	0	1	1	0	0	0	0	1	1	0	0	0	1	0	1	0	0	0	0	1	1	1	0	0	0	0	0	0	0	0	0	0	0	0	000	C33	C28	
43	43	1	1	1	0	0	1	1	0	0	0	0	1	1	1	1	0	1	1	0	0	0	0	0	1	1	1	0	0	0	0	0	0	0	0	0	0	0	0	000	C33	C1B	
44	44	1	0	1	0	0	1	1	0	0	0	0	1	1	1	0	1	1	1	1	1	1	1	1	0	1	1	0	0	0	0	0	0	0	0	0	0	0	0	000	C32	BFD	
45	45	1	0	0	1	0	1	1	0	0	0	0	1	1	0	1	1	0	1	0	0	0	0	0	1	1	1	0	0	0	0	0	0	0	0	0	0	0	0	000	C34	C16	
46	46	1	1	1	0	0	1	1	0	0	0	0	1	1	0	1	0	1	0	0	0	0	0	0	1	1	0	0	0	0	0	0	0	0	0	0	0	0	0	000	C33	C0A	
47	47	1	1	1	0	0	1	1	0	0	0	0	1	1	0	0	1	1	0	0	0	0	0	0	1	1	1	0	0	0	0	0	0	0	0	0	0	0	0	000	C33	C0C	
48	48	1	1	1	0	0	1	1	0	0	0	0	1	1	0	0	0	1	0	0	0	0	0	0	1	1	1	0	0	0	0	0	0	0	0	0	0	0	0	000	C33	C08	
49	49	1	1	1	0	0	1	1	0	0	0	0	1	1	0	1	1	0	0	0	0	0	0	0	1	1	1	0	0	0	0	0	0	0	0	0	0	0	0	000	C33	C06	
50	50	1	1	1	0	0	1	1	0	0	0	0	1	1	0	1	1	1	0	0	0	0	0	0	1	1	1	0	0	0	0	0	0	0	0	0	0	0	0	000	C33	C0E	
51	51	1	1	1	0	0	1	1	0	0	0	0	1	1	0	1	1	0	1	0	0	0	0	0	1	1	0	0	0	0	0	0	0	0	0	0	0	0	0	000	C33	C16	
52	52	1	1	1	0	0	1	1	0	0	0	0	1	1	1	0	1	1	1	0	0	0	0	0	1	1	1	0	0	0	0	0	0	0	0	0	0	0	0	000	C33	C1D	
53	53	1	1	1	0	0	1	1	0	0	0	0	1	1	0	0	1	1	1	1	1	1	1	1	0	1	1	0	0	0	0	0	0	0	0	0	0	0	0	000	C33	BFC	
54	54	1	0	0	0	1	0	1	0	0	0	0	1	1	0	1	1	1	0	0	0	0	0	0	1	1	1	0	0	0	0	0	0	0	0	0	0	0	0	000	C28	C0E	
55	55	1	0	0	0	1	0	1	0	0	0	0	1	1	1	0	1	0	1	0	0	0	0	0	1	1	1	0	0	0	0	0	0	0	0	0	0	0	0	000	C28	C15	
56	56	0	0	0	0	1	0	1	0	0	0	0	1	1	1	1	0	0	1	1	0	0	0	0	1	1	0	0	0	0	0	0	0	0	0	0	0	0	0	000	C28	C33	
57	57	1	0	0	0	1	0	1	0	0	0	0	1	1	0	0	0	1	0	1	0	0	0	0	1	1	0	0	0	0	0	0	0	0	0	0	0	0	0	000	C28	C28	
58	58	1	0	0	0	1	0	1	0	0	0	0	1	1	1	0	1	1	0	0	0	0	0	0	1	1	1	0	0	0	0	0	0	0	0	0	0	0	0	000	C28	C0D	
59	59	1	1	0	0	1	0	1	0	0	0	0	1	1	0	1	1	1	1	1	1	1	1	1	0	1	0	0	0	0	0	0	0	0	0	0	0	0	0	000	C29	BFE	
60	60	1	0	0	0	1	0	1	0	0	0	0	1	1	0	0	1	0	1	0	0	0	0	0	1	1	1	0	0	0	0	0	0	0	0	0	0	0	0	000	C28	C14	
61	61	1	0	0	0	1	0	1	0	0	0	0	1	1	1	1	0	1	0	0	0	0	0	0	1	1	1	0	0	0	0	0	0	0	0	0	0	0	0	000	C28	C0B	
62	62	1	0	0	0	1	0	1	0	0	0	0	1	1	0	0	1	1	0	0	0	0	0	0	1	1	1	0	0	0	0	0	0	0	0	0	0	0	0	000	C28	C0C	
63	63	1	0	0	0	1	0	1	0	0	0	0	1	1	0	1	0	1	0	0	0	0	0	0	1	1	1	0	0	0	0	0	0	0	0	0	0	0	0	000	C28	C0A	
64	64	1	0	0	0	1	0	1	0	0	0	0	1	1	1	0	1	0	0	0	0	0	0	0	1	1	1	0	0	0	0	0	0	0	0	0	0	0	0	000	C28	C05	
65	65	1	0	0	0	1	0	1	0	0	0	0	1	1	1	1	1	1	1	1	1	1	1	1	0	1	0	0	0	0	0	0	0	0	0	0	0	0	0	000	C28	BFF	
66	66	1	0	0	0	1	0	1	0	0	0	0	1	1	0	1	1	0	1	0	0	0	0	0	1	1	0	0	0	0	0	0	0	0	0	0	0	0	0	000	C28	C16	
67	67	1	0	0	0	1	0	1	0	0	0	0	1	1	0	0	1	1	1	0	0	0	0	0	1	1	0	0	0	0	0	0	0	0	0	0	0	0	0	000	C28	C1C	
68	68	1	0	0	0	1	0	1	0	0	0	0	1	1	0	0	1	1	1	1	1	1	1	1	0	1	1	0	0	0	0	0	0	0	0	0	0	0	0	000	C28	BFC	
69	69	0	0	0	1	1	0	0	0	0	0	0	1	1	0	1	1	1	0	0	0	0	0	0	1	1	1	0	0	0	0	0	0	0	0	0	0	0	0	000	C0C	C0E	
70	70	0	0	0	1	1	0	0	0	0	0	0	1	1	0	1	1	0	1	0	0	0	0	0	1	1	1	0	0	0	0	0	0	0	0	0	0	0	0	000	C0C	C16	
71	71	0	1	0	1	1	0	0	0	0	0	0	1	1	0	1	0	0	1	1	0	0	0	0	1	1	1	0	0	0	0	0	0	0	0	0	0	0	0	000	C0D	C32	
72	72	0	0	0	1	1	0	0	0	0	0	0	1	1	1	0	0	1	0	1	0	0	0	0	1	1	1	0	0	0	0	0	0	0	0	0	0	0	0	000	C0C	C29	
73	73	0	0	0	1	1	0	0	0	0	0	0	1	1	1	0	1	1	0	0	0	0	0	0	1	1	1	0	0	0	0	0	0	0	0	0	0	0	0	000	C0C	C0D	
74	74	1	1	0	1	1	0	0	0	0	0	0	1	1	1	0	1	1	1	1	1	1	1	1	0	1	1	0	0	0	0	0	0	0	0	0	0	0	0	000	C0D	BFD	
75	75	0	0	0	1	1	0	0	0	0	0	0	1	1	1	0	1	0	1	0	0	0	0	0	1	1	1	0	0	0	0	0	0	0	0	0	0	0	0	000	C0C	C15	
76	76	1	0	0	1	1	0	0	0	0	0	0	1	1	0	1	0	1	0	0	0	0	0	0	1	1	0	0	0	0	0	0	0	0	0	0	0	0	0	000	C0C	C0A	
77	77	0	0	0	1	1	0	0	0	0	0	0	1	1	0	0	1	1	0	0	0	0	0	0	1	1	1	0	0	0	0	0	0	0	0	0	0	0	0	000	C0C	C0C	
78	78	1	0	0	1	1	0	0	0	0	0	0	1	1	0	1	0	1	0	0	0	0	0	0	1	1	1	0	0	0	0	0	0	0	0	0	0	0	0	000	C0C	C0A	
79	79	1	1	0	1	1	0	0	0	0	0	0	1	1	1	0	1	0	0	0	0	0	0	0	1	1	1	0	0	0	0	0	0	0	0	0	0	0	0	000	C0D	C05	
80	80	1	0	0	1	1	0	0	0	0	0	0	1	1	0	0	0	0	0	0	0	0	0	0	1	1	1	0	0	0	0	0	0	0	0	0	0	0	0	000	C0C	C00	
81	81	0	1	0	1	1	0	0	0	0	0	0	1	1	1	1	1	0	1	0	0	0	0	0	1	1	1	0	0	0	0	0	0	0	0	0	0	0	0	000	C0D	C17	
82	82	0	0	0	1	1	0	0	0	0	0	0	1	1	1	0	1	1	1	0	0	0	0	0	1	1	1	0	0	0	0	0	0	0	0	0	0	0	0	000	C0C	C1D	
83	83	1	1	0	1	1	0	0	0	0	0	0	1	1	1	1	0	1	1	1	1	1	1	1	0	1	1	0	0	0	0	0	0	0	0	0	0	0	0	000	C0D	BFB	
84	84	0	1	0	1	1	1	1	1	1	1	1	0	1	1	1	1	1	0	0	0	0	0	0	1	1	1	0	0	0	0	0	0	0	0	0	0	0	0	000	BFD	C0F	
85	85	0	1	0	1	1	1	1	1	1	1	1	0	1	0	1	1	0	1	0	0	0	0	0	1	1	1	0	0	0	0	0	0	0	0	0	0	0	0	000	BFD	C16	
86	86	0	0	1	1	1	1	1	1	1	1	1	0	1	1	1	0	0	1	1	0	0	0	0	1	1	1	0	0	0	0	0	0	0	0	0	0	0	0	000	BFE	C33	
87	87	0	1	0	1	1	1	1	1	1	1	1	0	1	0	0	0	1	0	1	0	0	0	0	1	1	1	0	0	0	0	0	0	0	0	0	0	0	0	000	BFD	C28	
88	88	0	1	0	1	1	1	1	1	1	1	1	0	1	0	0	1	1	0	0	0	0	0	0	1	1	0	0	0	0	0	0	0	0	0	0	0	0	0	000	BFD	C0C	
89	89	0	1	0	1	1	1	1	1	1	1	1	0	1	0	1	1	1	1	1	1	1	1	1	0	1	1	0	0	0	0	0	0	0	0	0	0	0	0	000	BFD	BFE	
90	90	0	1	0	1	1	1	1	1	1	1	1	0	1	1	0	1	0	1	0	0	0	0	0	1	1	0	0	0	0	0	0	0	0	0	0	0	0	0	000	BFD	C15	
91	91	0	1	0	1	1	1	1	1	1	1	1	0	1	1	1	0	1	0	0	0	0	0	0	1	1	1	0	0	0	0	0	0	0	0	0	0	0	0	000	BFD	C0B	
92	92	0	1	0	1	1	1	1	1	1	1	1	0	1	1	1	0	1	0	0	0	0	0	0	1	1	0	0	0	0	0	0	0	0	0	0	0	0	0	000	BFD	C0B	
93	93	0	1	0	1	1	1	1	1	1	1	1	0	1	1	1	0	1	0	0	0	0	0	0	1	1	1	0	0	0	0	0	0	0	0	0	0	0	0	000	BFD	C0B	
94	94	0	1	0	1	1	1	1	1	1	1	1	0	1	1	0	1	0	0	0	0	0	0	0	1	1	1	0	0	0	0	0	0	0	0	0	0	0	0	000	BFD	C05	
95	95	0	1	0	1	1	1	1	1	1	1	1	0	1	1	1	1	1	1	1	1	1	1	1	0	1	1	0	0	0	0	0	0	0	0	0	0	0	0	000	BFD	BFF	
96	96	0	0	1	1	1	1	1	1	1	1	1	0	1	1	1	1	0	1	0	0	0	0	0	1	1	0	0	0	0	0	0	0	0	0	0	0	0	0	000	BFE	C17	
97	97	0	1	0	1	1	1	1	1	1	1	1	0	1	1	0	1	1	1	0	0	0	0	0	1	1	1	0	0	0	0	0	0	0	0	0	0	0	0	000	BFD	C1D	
98	98	1	1	0	1	1	1	1	1	1	1	1	0	1	1	1	0	1	1	1	1	1	1	1	0	1	0	0	0	0	0	0	0	0	0	0	0	0	0	000	BFD	BFB	
99	99	1	1	0	1	0	1	0	0	0	0	0	1	1	1	1	1	1	0	0	0	0	0	0	1	1	0	0	0	0	0	0	0	0	0	0	0	0	0	000	C15	C0F	
100	100	1	1	0	1	0	1	0	0	0	0	0	1	1	0	0	1	0	1	0	0	0	0	0	1	1	0	0	0	0	0	0	0	0	0	0	0	0	0	000	C15	C14	
101	101	0	1	0	1	0	1	0	0	0	0	0	1	1	1	1	0	0	1	1	0	0	0	0	1	1	0	0	0	0	0	0	0	0	0	0	0	0	0	000	C15	C33	
102	102	0	1	0	1	0	1	0	0	0	0	0	1	1	0	0	0	1	0	1	0	0	0	0	1	1	1	0	0	0	0	0	0	0	0	0	0	0	0	000	C15	C28	
103	103	1	1	0	1	0	1	0	0	0	0	0	1	1	0	1	1	1	0	0	0	0	0	0	1	1	0	0	0	0	0	0	0	0	0	0	0	0	0	000	C15	C0E	
104	104	1	1	0	1	0	1	0	0	0	0	0	1	1	1	0	1	1	1	1	1	1	1	1	0	1	1	0	0	0	0	0	0	0	0	0	0	0	0	000	C15	BFD	
105	105	0	1	0	1	0	1	0	0	0	0	0	1	1	1	0	1	0	1	0	0	0	0	0	1	1	0	0	0	0	0	0	0	0	0	0	0	0	0	000	C15	C15	
106	106	1	1	0	1	0	1	0	0	0	0	0	1	1	0	1	0	1	0	0	0	0	0	0	1	1	0	0	0	0	0	0	0	0	0	0	0	0	0	000	C15	C0A	
107	107	1	1	0	1	0	1	0	0	0	0	0	1	1	1	1	0	1	0	0	0	0	0	0	1	1	0	0	0	0	0	0	0	0	0	0	0	0	0	000	C15	C0B	
108	108	1	1	0	1	0	1	0	0	0	0	0	1	1	1	1	0	1	0	0	0	0	0	0	1	1	0	0	0	0	0	0	0	0	0	0	0	0	0	000	C15	C0B	
109	109	1	1	0	1	0	1	0	0	0	0	0	1	1	0	0	1	0	0	0	0	0	0	0	1	1	0	0	0	0	0	0	0	0	0	0	0	0	0	000	C15	C04	
110	110	1	0	1	1	0	1	0	0	0	0	0	1	1	1	0	0	0	0	0	0	0	0	0	1	1	1	0	0	0	0	0	0	0	0	0	0	0	0	000	C16	C01	
111	111	0	1	0	1	0	1	0	0	0	0	0	1	1	1	1	1	0	1	0	0	0	0	0	1	1	0	0	0	0	0	0	0	0	0	0	0	0	0	000	C15	C17	
112	112	0	1	0	1	0	1	0	0	0	0	0	1	1	1	0	1	1	1	0	0	0	0	0	1	1	0	0	0	0	0	0	0	0	0	0	0	0	0	000	C15	C1D	
113	113	1	0	1	1	0	1	0	0	0	0	0	1	1	0	0	1	1	1	1	1	1	1	1	0	1	1	0	0	0	0	0	0	0	0	0	0	0	0	000	C16	BFC	
114	114	0	0	1	0	1	0	0	0	0	0	0	1	1	1	1	1	1	0	0	0	0	0	0	1	1	1	0	0	0	0	0	0	0	0	0	0	0	0	000	C0A	C0F	
115	115	0	0	1	0	1	0	0	0	0	0	0	1	1	0	0	1	0	1	0	0	0	0	0	1	1	1	0	0	0	0	0	0	0	0	0	0	0	0	000	C0A	C14	
116	116	0	0	1	0	1	0	0	0	0	0	0	1	1	1	1	0	0	1	1	0	0	0	0	1	1	1	0	0	0	0	0	0	0	0	0	0	0	0	000	C0A	C33	
117	117	0	0	1	0	1	0	0	0	0	0	0	1	1	0	0	0	1	0	1	0	0	0	0	1	1	1	0	0	0	0	0	0	0	0	0	0	0	0	000	C0A	C28	
118	118	0	0	1	0	1	0	0	0	0	0	0	1	1	1	0	1	1	0	0	0	0	0	0	1	1	1	0	0	0	0	0	0	0	0	0	0	0	0	000	C0A	C0D	
119	119	1	0	1	0	1	0	0	0	0	0	0	1	1	1	0	1	1	1	1	1	1	1	1	0	1	1	0	0	0	0	0	0	0	0	0	0	0	0	000	C0A	BFD	
120	120	0	0	1	0	1	0	0	0	0	0	0	1	1	0	1	1	0	1	0	0	0	0	0	1	1	1	0	0	0	0	0	0	0	0	0	0	0	0	000	C0A	C16	
121	121	0	0	1	0	1	0	0	0	0	0	0	1	1	0	1	0	1	0	0	0	0	0	0	1	1	1	0	0	0	0	0	0	0	0	0	0	0	0	000	C0A	C0A	
122	122	0	0	1	0	1	0	0	0	0	0	0	1	1	1	0	1	1	0	0	0	0	0	0	1	1	1	0	0	0	0	0	0	0	0	0	0	0	0	000	C0A	C0D	
123	123	0	0	1	0	1	0	0	0	0	0	0	1	1	1	1	0	1	0	0	0	0	0	0	1	1	1	0	0	0	0	0	0	0	0	0	0	0	0	000	C0A	C0B	
124	124	1	0	1	0	1	0	0	0	0	0	0	1	1	1	0	1	0	0	0	0	0	0	0	1	1	1	0	0	0	0	0	0	0	0	0	0	0	0	000	C0A	C05	
125	125	1	1	0	0	1	0	0	0	0	0	0	1	1	0	0	0	0	0	0	0	0	0	0	1	1	1	0	0	0	0	0	0	0	0	0	0	0	0	000	C09	C00	
126	126	0	0	1	0	1	0	0	0	0	0	0	1	1	0	1	1	0	1	0	0	0	0	0	1	1	1	0	0	0	0	0	0	0	0	0	0	0	0	000	C0A	C16	
127	127	0	1	0	0	1	0	0	0	0	0	0	1	1	1	0	1	1	1	0	0	0	0	0	1	1	0	0	0	0	0	0	0	0	0	0	0	0	0	000	C09	C1D	
