Sample in Buffer	Sample in Window	pufout	DataPort[1]	DataPort[2]	DataPort[3]	DataPort[4]	DataPort[5]	DataPort[6]	DataPort[7]	DataPort[8]	DataPort[9]	DataPort[10]	DataPort[11]	DataPort[12]	DataPort[13]	DataPort[14]	DataPort[15]	DataPort[16]	DataPort[17]	DataPort[18]	DataPort[19]	DataPort[20]	DataPort[21]	DataPort[22]	DataPort[23]	DataPort[24]	mux1_out	DataPort[26]	DataPort[27]	DataPort[28]	DataPort[29]	DataPort[30]	DataPort[31]	DataPort[32]	DataPort[33]	DataPort[34]	DataPort[35]	DataPort[36]	DataPort[37]	clockcounter_out	counter1_out	counter2_out
0	0	0	0	1	0	0	1	0	0	0	0	0	1	1	0	1	1	0	1	0	0	0	0	0	1	1	0	0	0	0	0	0	0	0	0	0	0	0	0	000	C12	C16	
1	1	1	1	1	0	0	1	0	0	0	0	0	1	1	0	1	0	1	0	0	0	0	0	0	1	1	1	0	0	0	0	0	0	0	0	0	0	0	0	000	C13	C0A	
2	2	1	1	1	0	0	1	0	0	0	0	0	1	1	0	0	1	1	0	0	0	0	0	0	1	1	0	0	0	0	0	0	0	0	0	0	0	0	0	000	C13	C0C	
3	3	1	1	1	0	0	1	0	0	0	0	0	1	1	0	1	0	1	0	0	0	0	0	0	1	1	1	0	0	0	0	0	0	0	0	0	0	0	0	000	C13	C0A	
4	4	1	1	1	0	0	1	0	0	0	0	0	1	1	0	0	1	0	0	0	0	0	0	0	1	1	1	0	0	0	0	0	0	0	0	0	0	0	0	000	C13	C04	
5	5	1	1	1	0	0	1	0	0	0	0	0	1	1	1	1	1	1	1	1	1	1	1	1	0	1	0	0	0	0	0	0	0	0	0	0	0	0	0	000	C13	BFF	
6	6	0	1	1	0	0	1	0	0	0	0	0	1	1	0	1	1	0	1	0	0	0	0	0	1	1	0	0	0	0	0	0	0	0	0	0	0	0	0	000	C13	C16	
7	7	0	0	1	0	0	1	0	0	0	0	0	1	1	0	0	1	1	1	0	0	0	0	0	1	1	0	0	0	0	0	0	0	0	0	0	0	0	0	000	C12	C1C	
8	8	1	0	1	0	0	1	0	0	0	0	0	1	1	0	0	1	1	1	1	1	1	1	1	0	1	0	0	0	0	0	0	0	0	0	0	0	0	0	000	C12	BFC	
9	9	0	0	1	1	1	0	0	0	0	0	0	1	1	0	1	1	1	0	0	0	0	0	0	1	1	1	0	0	0	0	0	0	0	0	0	0	0	0	000	C0E	C0E	
10	10	0	1	1	1	1	0	0	0	0	0	0	1	1	1	0	1	0	1	0	0	0	0	0	1	1	1	0	0	0	0	0	0	0	0	0	0	0	0	000	C0F	C15	
11	11	0	0	1	1	1	0	0	0	0	0	0	1	1	0	0	1	0	1	1	0	0	0	0	1	1	0	0	0	0	0	0	0	0	0	0	0	0	0	000	C0E	C34	
12	12	0	0	1	1	1	0	0	0	0	0	0	1	1	1	1	1	0	0	1	0	0	0	0	1	1	1	0	0	0	0	0	0	0	0	0	0	0	0	000	C0E	C27	
13	13	1	0	1	1	1	0	0	0	0	0	0	1	1	1	0	1	1	0	0	0	0	0	0	1	1	1	0	0	0	0	0	0	0	0	0	0	0	0	000	C0E	C0D	
14	14	1	0	1	1	1	0	0	0	0	0	0	1	1	0	1	1	1	1	1	1	1	1	1	0	1	0	0	0	0	0	0	0	0	0	0	0	0	0	000	C0E	BFE	
15	15	0	0	1	1	1	0	0	0	0	0	0	1	1	1	0	1	0	1	0	0	0	0	0	1	1	0	0	0	0	0	0	0	0	0	0	0	0	0	000	C0E	C15	
16	16	1	0	1	1	1	0	0	0	0	0	0	1	1	1	0	0	1	0	0	0	0	0	0	1	1	1	0	0	0	0	0	0	0	0	0	0	0	0	000	C0E	C09	
17	17	1	0	1	1	1	0	0	0	0	0	0	1	1	0	1	1	1	0	0	0	0	0	0	1	1	1	0	0	0	0	0	0	0	0	0	0	0	0	000	C0E	C0E	
18	18	1	1	1	1	1	0	0	0	0	0	0	1	1	1	0	0	1	0	0	0	0	0	0	1	1	1	0	0	0	0	0	0	0	0	0	0	0	0	000	C0F	C09	
19	19	1	0	1	1	1	0	0	0	0	0	0	1	1	0	0	1	0	0	0	0	0	0	0	1	1	0	0	0	0	0	0	0	0	0	0	0	0	0	000	C0E	C04	
20	20	1	0	1	1	1	0	0	0	0	0	0	1	1	1	1	1	1	1	1	1	1	1	1	0	1	0	0	0	0	0	0	0	0	0	0	0	0	0	000	C0E	BFF	
21	21	0	0	1	1	1	0	0	0	0	0	0	1	1	0	0	0	1	1	0	0	0	0	0	1	1	0	0	0	0	0	0	0	0	0	0	0	0	0	000	C0E	C18	
22	22	0	0	1	1	1	0	0	0	0	0	0	1	1	1	0	1	1	1	0	0	0	0	0	1	1	0	0	0	0	0	0	0	0	0	0	0	0	0	000	C0E	C1D	
23	23	1	0	1	1	1	0	0	0	0	0	0	1	1	1	1	0	1	1	1	1	1	1	1	0	1	1	0	0	0	0	0	0	0	0	0	0	0	0	000	C0E	BFB	
24	24	1	1	0	1	0	1	0	0	0	0	0	1	1	0	1	1	1	0	0	0	0	0	0	1	1	1	0	0	0	0	0	0	0	0	0	0	0	0	000	C15	C0E	
25	25	0	1	0	1	0	1	0	0	0	0	0	1	1	0	1	1	0	1	0	0	0	0	0	1	1	1	0	0	0	0	0	0	0	0	0	0	0	0	000	C15	C16	
26	26	0	1	0	1	0	1	0	0	0	0	0	1	1	1	1	0	0	1	1	0	0	0	0	1	1	0	0	0	0	0	0	0	0	0	0	0	0	0	000	C15	C33	
27	27	0	0	1	1	0	1	0	0	0	0	0	1	1	0	0	0	1	0	1	0	0	0	0	1	1	0	0	0	0	0	0	0	0	0	0	0	0	0	000	C16	C28	
28	28	1	1	0	1	0	1	0	0	0	0	0	1	1	1	0	1	1	0	0	0	0	0	0	1	1	0	0	0	0	0	0	0	0	0	0	0	0	0	000	C15	C0D	
29	29	1	0	1	1	0	1	0	0	0	0	0	1	1	1	0	1	1	1	1	1	1	1	1	0	1	0	0	0	0	0	0	0	0	0	0	0	0	0	000	C16	BFD	
30	30	0	1	0	1	0	1	0	0	0	0	0	1	1	1	0	1	0	1	0	0	0	0	0	1	1	0	0	0	0	0	0	0	0	0	0	0	0	0	000	C15	C15	
31	31	1	0	1	1	0	1	0	0	0	0	0	1	1	1	1	0	1	0	0	0	0	0	0	1	1	0	0	0	0	0	0	0	0	0	0	0	0	0	000	C16	C0B	
32	32	1	1	0	1	0	1	0	0	0	0	0	1	1	1	0	1	1	0	0	0	0	0	0	1	1	0	0	0	0	0	0	0	0	0	0	0	0	0	000	C15	C0D	
33	33	1	1	0	1	0	1	0	0	0	0	0	1	1	1	1	0	1	0	0	0	0	0	0	1	1	0	0	0	0	0	0	0	0	0	0	0	0	0	000	C15	C0B	
34	34	1	0	1	1	0	1	0	0	0	0	0	1	1	0	0	1	0	0	0	0	0	0	0	1	1	0	0	0	0	0	0	0	0	0	0	0	0	0	000	C16	C04	
35	35	1	1	0	1	0	1	0	0	0	0	0	1	1	1	1	1	1	1	1	1	1	1	1	0	1	0	0	0	0	0	0	0	0	0	0	0	0	0	000	C15	BFF	
36	36	0	1	0	1	0	1	0	0	0	0	0	1	1	0	1	1	0	1	0	0	0	0	0	1	1	1	0	0	0	0	0	0	0	0	0	0	0	0	000	C15	C16	
37	37	0	1	0	1	0	1	0	0	0	0	0	1	1	0	1	1	1	1	0	0	0	0	0	1	1	0	0	0	0	0	0	0	0	0	0	0	0	0	000	C15	C1E	
38	38	1	0	1	1	0	1	0	0	0	0	0	1	1	0	0	1	1	1	1	1	1	1	1	0	1	0	0	0	0	0	0	0	0	0	0	0	0	0	000	C16	BFC	
39	39	1	1	1	0	0	1	1	0	0	0	0	1	1	1	1	1	1	0	0	0	0	0	0	1	1	0	0	0	0	0	0	0	0	0	0	0	0	0	000	C33	C0F	
40	40	1	1	1	0	0	1	1	0	0	0	0	1	1	1	0	1	0	1	0	0	0	0	0	1	1	1	0	0	0	0	0	0	0	0	0	0	0	0	000	C33	C15	
41	41	0	1	1	0	0	1	1	0	0	0	0	1	1	1	1	0	0	1	1	0	0	0	0	1	1	1	0	0	0	0	0	0	0	0	0	0	0	0	000	C33	C33	
42	42	1	1	1	0	0	1	1	0	0	0	0	1	1	0	0	0	1	0	1	0	0	0	0	1	1	1	0	0	0	0	0	0	0	0	0	0	0	0	000	C33	C28	
43	43	1	0	0	0	0	1	1	0	0	0	0	1	1	1	0	1	1	0	0	0	0	0	0	1	1	1	0	0	0	0	0	0	0	0	0	0	0	0	000	C30	C0D	
44	44	1	1	1	0	0	1	1	0	0	0	0	1	1	0	1	1	1	1	1	1	1	1	1	0	1	1	0	0	0	0	0	0	0	0	0	0	0	0	000	C33	BFE	
45	45	1	1	1	0	0	1	1	0	0	0	0	1	1	1	0	1	0	1	0	0	0	0	0	1	1	1	0	0	0	0	0	0	0	0	0	0	0	0	000	C33	C15	
46	46	1	1	1	0	0	1	1	0	0	0	0	1	1	0	1	0	1	0	0	0	0	0	0	1	1	1	0	0	0	0	0	0	0	0	0	0	0	0	000	C33	C0A	
47	47	1	1	1	0	0	1	1	0	0	0	0	1	1	0	0	1	1	0	0	0	0	0	0	1	1	1	0	0	0	0	0	0	0	0	0	0	0	0	000	C33	C0C	
48	48	1	1	1	0	0	1	1	0	0	0	0	1	1	1	1	0	1	0	0	0	0	0	0	1	1	1	0	0	0	0	0	0	0	0	0	0	0	0	000	C33	C0B	
49	49	1	0	1	0	0	1	1	0	0	0	0	1	1	0	0	1	0	0	0	0	0	0	0	1	1	0	0	0	0	0	0	0	0	0	0	0	0	0	000	C32	C04	
50	50	1	1	1	0	0	1	1	0	0	0	0	1	1	1	1	1	1	1	1	1	1	1	1	0	1	1	0	0	0	0	0	0	0	0	0	0	0	0	000	C33	BFF	
51	51	1	1	1	0	0	1	1	0	0	0	0	1	1	0	1	1	0	1	0	0	0	0	0	1	1	0	0	0	0	0	0	0	0	0	0	0	0	0	000	C33	C16	
52	52	1	1	1	0	0	1	1	0	0	0	0	1	1	1	0	1	1	1	0	0	0	0	0	1	1	0	0	0	0	0	0	0	0	0	0	0	0	0	000	C33	C1D	
53	53	1	1	1	0	0	1	1	0	0	0	0	1	1	0	0	1	1	1	1	1	1	1	1	0	1	1	0	0	0	0	0	0	0	0	0	0	0	0	000	C33	BFC	
54	54	1	1	1	1	0	0	1	0	0	0	0	1	1	1	1	1	1	0	0	0	0	0	0	1	1	0	0	0	0	0	0	0	0	0	0	0	0	0	000	C27	C0F	
55	55	1	0	0	0	1	0	1	0	0	0	0	1	1	1	0	1	0	1	0	0	0	0	0	1	1	1	0	0	0	0	0	0	0	0	0	0	0	0	000	C28	C15	
56	56	0	0	0	0	1	0	1	0	0	0	0	1	1	1	1	0	0	1	1	0	0	0	0	1	1	1	0	0	0	0	0	0	0	0	0	0	0	0	000	C28	C33	
57	57	0	0	0	0	1	0	1	0	0	0	0	1	1	1	0	0	1	0	1	0	0	0	0	1	1	1	0	0	0	0	0	0	0	0	0	0	0	0	000	C28	C29	
58	58	1	0	0	0	1	0	1	0	0	0	0	1	1	0	0	1	1	0	0	0	0	0	0	1	1	1	0	0	0	0	0	0	0	0	0	0	0	0	000	C28	C0C	
59	59	1	0	0	0	1	0	1	0	0	0	0	1	1	0	1	1	1	1	1	1	1	1	1	0	1	1	0	0	0	0	0	0	0	0	0	0	0	0	000	C28	BFE	
60	60	1	0	0	0	1	0	1	0	0	0	0	1	1	1	0	1	0	1	0	0	0	0	0	1	1	1	0	0	0	0	0	0	0	0	0	0	0	0	000	C28	C15	
61	61	1	0	0	0	1	0	1	0	0	0	0	1	1	1	1	0	1	0	0	0	0	0	0	1	1	0	0	0	0	0	0	0	0	0	0	0	0	0	000	C28	C0B	
62	62	1	1	0	0	1	0	1	0	0	0	0	1	1	1	0	1	1	0	0	0	0	0	0	1	1	1	0	0	0	0	0	0	0	0	0	0	0	0	000	C29	C0D	
63	63	1	0	0	0	1	0	1	0	0	0	0	1	1	0	1	0	1	0	0	0	0	0	0	1	1	0	0	0	0	0	0	0	0	0	0	0	0	0	000	C28	C0A	
64	64	1	0	0	0	1	0	1	0	0	0	0	1	1	0	0	1	0	0	0	0	0	0	0	1	1	1	0	0	0	0	0	0	0	0	0	0	0	0	000	C28	C04	
65	65	1	1	1	1	0	0	1	0	0	0	0	1	1	0	0	0	0	0	0	0	0	0	0	1	1	0	0	0	0	0	0	0	0	0	0	0	0	0	000	C27	C00	
66	66	1	1	0	0	1	0	1	0	0	0	0	1	1	1	1	1	0	1	0	0	0	0	0	1	1	1	0	0	0	0	0	0	0	0	0	0	0	0	000	C29	C17	
67	67	1	0	0	0	1	0	1	0	0	0	0	1	1	1	0	1	1	1	0	0	0	0	0	1	1	1	0	0	0	0	0	0	0	0	0	0	0	0	000	C28	C1D	
68	68	1	0	0	0	1	0	1	0	0	0	0	1	1	0	0	1	1	1	1	1	1	1	1	0	1	1	0	0	0	0	0	0	0	0	0	0	0	0	000	C28	BFC	
69	69	0	1	0	1	1	0	0	0	0	0	0	1	1	1	1	1	1	0	0	0	0	0	0	1	1	1	0	0	0	0	0	0	0	0	0	0	0	0	000	C0D	C0F	
70	70	0	1	0	1	1	0	0	0	0	0	0	1	1	1	0	1	0	1	0	0	0	0	0	1	1	0	0	0	0	0	0	0	0	0	0	0	0	0	000	C0D	C15	
71	71	0	0	0	1	1	0	0	0	0	0	0	1	1	1	1	0	0	1	1	0	0	0	0	1	1	0	0	0	0	0	0	0	0	0	0	0	0	0	000	C0C	C33	
72	72	0	0	0	1	1	0	0	0	0	0	0	1	1	0	0	0	1	0	1	0	0	0	0	1	1	0	0	0	0	0	0	0	0	0	0	0	0	0	000	C0C	C28	
73	73	0	1	0	1	1	0	0	0	0	0	0	1	1	1	0	1	1	0	0	0	0	0	0	1	1	0	0	0	0	0	0	0	0	0	0	0	0	0	000	C0D	C0D	
74	74	1	0	0	1	1	0	0	0	0	0	0	1	1	1	0	1	1	1	1	1	1	1	1	0	1	0	0	0	0	0	0	0	0	0	0	0	0	0	000	C0C	BFD	
75	75	0	1	0	1	1	0	0	0	0	0	0	1	1	1	0	1	0	1	0	0	0	0	0	1	1	0	0	0	0	0	0	0	0	0	0	0	0	0	000	C0D	C15	
76	76	1	1	0	1	1	0	0	0	0	0	0	1	1	0	1	0	1	0	0	0	0	0	0	1	1	1	0	0	0	0	0	0	0	0	0	0	0	0	000	C0D	C0A	
77	77	0	0	0	1	1	0	0	0	0	0	0	1	1	0	0	1	1	0	0	0	0	0	0	1	1	0	0	0	0	0	0	0	0	0	0	0	0	0	000	C0C	C0C	
78	78	1	1	0	1	1	0	0	0	0	0	0	1	1	0	1	0	1	0	0	0	0	0	0	1	1	1	0	0	0	0	0	0	0	0	0	0	0	0	000	C0D	C0A	
79	79	1	0	0	1	1	0	0	0	0	0	0	1	1	1	0	1	0	0	0	0	0	0	0	1	1	0	0	0	0	0	0	0	0	0	0	0	0	0	000	C0C	C05	
80	80	1	1	1	0	0	1	1	0	0	0	0	1	1	1	1	1	1	1	1	1	1	1	1	0	1	0	0	0	0	0	0	0	0	0	0	0	0	0	000	C33	BFF	
81	81	0	1	0	1	1	0	0	0	0	0	0	1	1	0	0	0	1	1	0	0	0	0	0	1	1	0	0	0	0	0	0	0	0	0	0	0	0	0	000	C0D	C18	
82	82	0	1	0	1	1	0	0	0	0	0	0	1	1	1	0	1	1	1	0	0	0	0	0	1	1	0	0	0	0	0	0	0	0	0	0	0	0	0	000	C0D	C1D	
83	83	1	0	1	1	1	0	0	0	0	0	0	1	1	0	0	1	1	1	1	1	1	1	1	0	1	0	0	0	0	0	0	0	0	0	0	0	0	0	000	C0E	BFC	
84	84	0	1	0	1	1	1	1	1	1	1	1	0	1	0	1	1	1	0	0	0	0	0	0	1	1	0	0	0	0	0	0	0	0	0	0	0	0	0	000	BFD	C0E	
85	85	0	1	0	1	1	1	1	1	1	1	1	0	1	1	0	1	0	1	0	0	0	0	0	1	1	1	0	0	0	0	0	0	0	0	0	0	0	0	000	BFD	C15	
86	86	0	0	0	1	1	1	1	1	1	1	1	0	1	1	1	0	0	1	1	0	0	0	0	1	1	0	0	0	0	0	0	0	0	0	0	0	0	0	000	BFC	C33	
87	87	0	0	1	1	1	1	1	1	1	1	1	0	1	0	0	0	1	0	1	0	0	0	0	1	1	0	0	0	0	0	0	0	0	0	0	0	0	0	000	BFE	C28	
88	88	0	0	0	1	1	1	1	1	1	1	1	0	1	0	1	1	1	0	0	0	0	0	0	1	1	0	0	0	0	0	0	0	0	0	0	0	0	0	000	BFC	C0E	
89	89	0	1	0	1	1	1	1	1	1	1	1	0	1	0	1	1	1	1	1	1	1	1	1	0	1	0	0	0	0	0	0	0	0	0	0	0	0	0	000	BFD	BFE	
90	90	0	1	0	1	1	1	1	1	1	1	1	0	1	0	1	1	0	1	0	0	0	0	0	1	1	1	0	0	0	0	0	0	0	0	0	0	0	0	000	BFD	C16	
91	91	0	1	0	1	1	1	1	1	1	1	1	0	1	1	0	0	1	0	0	0	0	0	0	1	1	1	0	0	0	0	0	0	0	0	0	0	0	0	000	BFD	C09	
92	92	0	1	0	1	1	1	1	1	1	1	1	0	1	0	0	1	1	0	0	0	0	0	0	1	1	0	0	0	0	0	0	0	0	0	0	0	0	0	000	BFD	C0C	
93	93	0	1	0	1	1	1	1	1	1	1	1	0	1	0	1	0	1	0	0	0	0	0	0	1	1	0	0	0	0	0	0	0	0	0	0	0	0	0	000	BFD	C0A	
94	94	0	1	0	1	1	1	1	1	1	1	1	0	1	0	0	1	0	0	0	0	0	0	0	1	1	1	0	0	0	0	0	0	0	0	0	0	0	0	000	BFD	C04	
95	95	0	1	0	1	1	1	1	1	1	1	1	0	1	1	1	1	1	1	1	1	1	1	1	0	1	0	0	0	0	0	0	0	0	0	0	0	0	0	000	BFD	BFF	
96	96	0	1	0	1	1	1	1	1	1	1	1	0	1	0	1	1	0	1	0	0	0	0	0	1	1	1	0	0	0	0	0	0	0	0	0	0	0	0	000	BFD	C16	
97	97	0	0	1	1	1	1	1	1	1	1	1	0	1	0	1	1	1	1	0	0	0	0	0	1	1	1	0	0	0	0	0	0	0	0	0	0	0	0	000	BFE	C1E	
98	98	0	0	0	1	1	1	1	1	1	1	1	0	1	0	0	1	1	1	1	1	1	1	1	0	1	0	0	0	0	0	0	0	0	0	0	0	0	0	000	BFC	BFC	
99	99	1	1	0	1	0	1	0	0	0	0	0	1	1	0	1	0	0	0	0	0	0	0	0	1	1	0	0	0	0	0	0	0	0	0	0	0	0	0	000	C15	C02	
100	100	1	0	1	1	0	1	0	0	0	0	0	1	1	1	0	1	0	1	0	0	0	0	0	1	1	0	0	0	0	0	0	0	0	0	0	0	0	0	000	C16	C15	
101	101	0	0	1	1	0	1	0	0	0	0	0	1	1	1	1	0	0	1	1	0	0	0	0	1	1	1	0	0	0	0	0	0	0	0	0	0	0	0	000	C16	C33	
102	102	0	0	1	1	0	1	0	0	0	0	0	1	1	0	0	0	1	0	1	0	0	0	0	1	1	1	0	0	0	0	0	0	0	0	0	0	0	0	000	C16	C28	
103	103	1	0	1	1	0	1	0	0	0	0	0	1	1	0	0	1	1	0	0	0	0	0	0	1	1	0	0	0	0	0	0	0	0	0	0	0	0	0	000	C16	C0C	
104	104	1	1	0	1	0	1	0	0	0	0	0	1	1	1	0	1	1	1	1	1	1	1	1	0	1	0	0	0	0	0	0	0	0	0	0	0	0	0	000	C15	BFD	
105	105	0	1	0	1	0	1	0	0	0	0	0	1	1	0	1	1	0	1	0	0	0	0	0	1	1	0	0	0	0	0	0	0	0	0	0	0	0	0	000	C15	C16	
106	106	1	1	0	1	0	1	0	0	0	0	0	1	1	1	1	0	1	0	0	0	0	0	0	1	1	0	0	0	0	0	0	0	0	0	0	0	0	0	000	C15	C0B	
107	107	1	0	1	1	0	1	0	0	0	0	0	1	1	1	0	1	1	0	0	0	0	0	0	1	1	1	0	0	0	0	0	0	0	0	0	0	0	0	000	C16	C0D	
108	108	1	1	0	1	0	1	0	0	0	0	0	1	1	1	0	0	1	0	0	0	0	0	0	1	1	0	0	0	0	0	0	0	0	0	0	0	0	0	000	C15	C09	
109	109	1	1	0	1	0	1	0	0	0	0	0	1	1	0	0	1	0	0	0	0	0	0	0	1	1	0	0	0	0	0	0	0	0	0	0	0	0	0	000	C15	C04	
110	110	1	0	1	1	0	1	0	0	0	0	0	1	1	1	1	1	1	1	1	1	1	1	1	0	1	1	0	0	0	0	0	0	0	0	0	0	0	0	000	C16	BFF	
111	111	0	1	1	1	0	1	0	0	0	0	0	1	1	1	1	1	0	1	0	0	0	0	0	1	1	1	0	0	0	0	0	0	0	0	0	0	0	0	000	C17	C17	
112	112	0	1	0	1	0	1	0	0	0	0	0	1	1	1	0	1	1	1	0	0	0	0	0	1	1	0	0	0	0	0	0	0	0	0	0	0	0	0	000	C15	C1D	
113	113	1	1	1	1	0	1	0	0	0	0	0	1	1	0	0	1	1	1	1	1	1	1	1	0	1	1	0	0	0	0	0	0	0	0	0	0	0	0	000	C17	BFC	
114	114	0	1	1	0	1	0	0	0	0	0	0	1	1	1	1	1	1	0	0	0	0	0	0	1	1	1	0	0	0	0	0	0	0	0	0	0	0	0	000	C0B	C0F	
115	115	0	1	0	0	1	0	0	0	0	0	0	1	1	1	0	1	0	1	0	0	0	0	0	1	1	0	0	0	0	0	0	0	0	0	0	0	0	0	000	C09	C15	
116	116	0	0	1	0	1	0	0	0	0	0	0	1	1	1	1	0	0	1	1	0	0	0	0	1	1	0	0	0	0	0	0	0	0	0	0	0	0	0	000	C0A	C33	
117	117	0	0	1	0	1	0	0	0	0	0	0	1	1	0	0	0	1	0	1	0	0	0	0	1	1	1	0	0	0	0	0	0	0	0	0	0	0	0	000	C0A	C28	
118	118	0	1	1	0	1	0	0	0	0	0	0	1	1	0	1	1	1	0	0	0	0	0	0	1	1	1	0	0	0	0	0	0	0	0	0	0	0	0	000	C0B	C0E	
119	119	1	0	1	0	1	0	0	0	0	0	0	1	1	1	0	1	1	1	1	1	1	1	1	0	1	1	0	0	0	0	0	0	0	0	0	0	0	0	000	C0A	BFD	
120	120	0	0	1	0	1	0	0	0	0	0	0	1	1	1	1	1	0	1	0	0	0	0	0	1	1	1	0	0	0	0	0	0	0	0	0	0	0	0	000	C0A	C17	
121	121	0	1	1	0	1	0	0	0	0	0	0	1	1	1	1	0	1	0	0	0	0	0	0	1	1	1	0	0	0	0	0	0	0	0	0	0	0	0	000	C0B	C0B	
122	122	0	0	1	0	1	0	0	0	0	0	0	1	1	1	0	1	1	0	0	0	0	0	0	1	1	0	0	0	0	0	0	0	0	0	0	0	0	0	000	C0A	C0D	
123	123	1	1	1	0	1	0	0	0	0	0	0	1	1	0	1	0	1	0	0	0	0	0	0	1	1	1	0	0	0	0	0	0	0	0	0	0	0	0	000	C0B	C0A	
124	124	1	0	1	0	1	0	0	0	0	0	0	1	1	0	0	1	0	0	0	0	0	0	0	1	1	1	0	0	0	0	0	0	0	0	0	0	0	0	000	C0A	C04	
125	125	1	0	1	0	1	0	0	0	0	0	0	1	1	1	1	1	1	1	1	1	1	1	0	1	1	1	0	0	0	0	0	0	0	0	0	0	0	0	000	C0A	DFF	
126	126	0	0	1	0	1	0	0	0	0	0	0	1	1	1	1	1	0	1	0	0	0	0	0	1	1	1	0	0	0	0	0	0	0	0	0	0	0	0	000	C0A	C17	
127	127	0	0	1	0	1	0	0	0	0	0	0	1	1	1	0	1	1	1	0	0	0	0	0	1	1	1	0	0	0	0	0	0	0	0	0	0	0	0	000	C0A	C1D	
