Sample in Buffer	Sample in Window	pufout	DataPort[1]	DataPort[2]	DataPort[3]	DataPort[4]	DataPort[5]	DataPort[6]	DataPort[7]	DataPort[8]	DataPort[9]	DataPort[10]	DataPort[11]	DataPort[12]	DataPort[13]	DataPort[14]	DataPort[15]	DataPort[16]	DataPort[17]	DataPort[18]	DataPort[19]	DataPort[20]	DataPort[21]	DataPort[22]	DataPort[23]	DataPort[24]	mux1_out	DataPort[26]	DataPort[27]	DataPort[28]	DataPort[29]	DataPort[30]	DataPort[31]	DataPort[32]	DataPort[33]	DataPort[34]	DataPort[35]	DataPort[36]	DataPort[37]	clockcounter_out	counter1_out	counter2_out
0	0	0	1	1	0	0	1	0	0	0	0	0	1	1	1	0	1	0	1	0	0	0	0	0	1	1	0	0	0	0	0	0	0	0	0	0	0	0	0	000	C13	C15	
1	1	1	1	1	0	0	1	0	0	0	0	0	1	1	0	1	1	1	0	0	0	0	0	0	1	1	1	0	0	0	0	0	0	0	0	0	0	0	0	000	C13	C0E	
2	2	1	1	1	0	0	1	0	0	0	0	0	1	1	1	0	1	1	0	0	0	0	0	0	1	1	1	0	0	0	0	0	0	0	0	0	0	0	0	000	C13	C0D	
3	3	1	1	1	0	0	1	0	0	0	0	0	1	1	0	1	0	1	0	0	0	0	0	0	1	1	1	0	0	0	0	0	0	0	0	0	0	0	0	000	C13	C0A	
4	4	1	1	1	0	0	1	0	0	0	0	0	1	1	0	0	1	0	0	0	0	0	0	0	1	1	1	0	0	0	0	0	0	0	0	0	0	0	0	000	C13	C04	
5	5	1	1	1	0	0	1	0	0	0	0	0	1	1	1	1	1	1	1	1	1	1	1	1	0	1	0	0	0	0	0	0	0	0	0	0	0	0	0	000	C13	BFF	
6	6	0	1	1	0	0	1	0	0	0	0	0	1	1	1	1	1	0	1	0	0	0	0	0	1	1	0	0	0	0	0	0	0	0	0	0	0	0	0	000	C13	C17	
7	7	0	0	0	1	0	1	0	0	0	0	0	1	1	1	0	1	1	1	0	0	0	0	0	1	1	1	0	0	0	0	0	0	0	0	0	0	0	0	000	C14	C1D	
8	8	1	0	1	0	0	1	0	0	0	0	0	1	1	1	1	0	1	1	1	1	1	1	1	0	1	0	0	0	0	0	0	0	0	0	0	0	0	0	000	C12	BFB	
9	9	0	0	1	1	1	0	0	0	0	0	0	1	1	1	1	1	1	0	0	0	0	0	0	1	1	1	0	0	0	0	0	0	0	0	0	0	0	0	000	C0E	C0F	
10	10	0	0	1	1	1	0	0	0	0	0	0	1	1	1	0	1	0	1	0	0	0	0	0	1	1	1	0	0	0	0	0	0	0	0	0	0	0	0	000	C0E	C15	
11	11	0	0	1	1	1	0	0	0	0	0	0	1	1	1	0	1	0	1	1	0	0	0	0	1	1	0	0	0	0	0	0	0	0	0	0	0	0	0	000	C0E	C35	
12	12	0	0	1	1	1	0	0	0	0	0	0	1	1	0	0	0	1	0	1	0	0	0	0	1	1	0	0	0	0	0	0	0	0	0	0	0	0	0	000	C0E	C28	
13	13	1	0	1	1	1	0	0	0	0	0	0	1	1	0	0	1	1	0	0	0	0	0	0	1	1	0	0	0	0	0	0	0	0	0	0	0	0	0	000	C0E	C0C	
14	14	1	0	1	1	1	0	0	0	0	0	0	1	1	1	0	1	1	1	1	1	1	1	1	0	1	0	0	0	0	0	0	0	0	0	0	0	0	0	000	C0E	BFD	
15	15	0	0	1	1	1	0	0	0	0	0	0	1	1	1	0	1	0	1	0	0	0	0	0	1	1	0	0	0	0	0	0	0	0	0	0	0	0	0	000	C0E	C15	
16	16	1	0	0	1	0	1	1	0	0	0	0	1	1	0	1	0	1	0	0	0	0	0	0	1	1	0	0	0	0	0	0	0	0	0	0	0	0	0	000	C34	C0A	
17	17	1	0	1	1	1	0	0	0	0	0	0	1	1	0	0	1	1	0	0	0	0	0	0	1	1	0	0	0	0	0	0	0	0	0	0	0	0	0	000	C0E	C0C	
18	18	1	1	1	1	1	0	0	0	0	0	0	1	1	0	1	0	1	0	0	0	0	0	0	1	1	0	0	0	0	0	0	0	0	0	0	0	0	0	000	C0F	C0A	
19	19	1	1	1	1	1	0	0	0	0	0	0	1	1	0	0	1	0	0	0	0	0	0	0	1	1	0	0	0	0	0	0	0	0	0	0	0	0	0	000	C0F	C04	
20	20	1	1	1	1	1	0	0	0	0	0	0	1	1	0	0	0	0	0	0	0	0	0	0	1	1	1	0	0	0	0	0	0	0	0	0	0	0	0	000	C0F	C00	
21	21	0	0	0	1	0	1	0	0	0	0	0	1	1	1	1	1	0	1	0	0	0	0	0	1	1	1	0	0	0	0	0	0	0	0	0	0	0	0	000	C14	C17	
22	22	0	1	1	1	0	0	0	0	0	0	0	1	1	1	0	1	1	1	0	0	0	0	0	1	1	1	0	0	0	0	0	0	0	0	0	0	0	0	000	C07	C1D	
23	23	1	1	1	1	1	0	0	0	0	0	0	1	1	1	0	1	1	1	1	1	1	1	1	0	1	1	0	0	0	0	0	0	0	0	0	0	0	0	000	C0F	BFD	
24	24	1	1	0	1	0	1	0	0	0	0	0	1	1	1	1	1	1	0	0	0	0	0	0	1	1	0	0	0	0	0	0	0	0	0	0	0	0	0	000	C15	C0F	
25	25	0	1	0	1	0	1	0	0	0	0	0	1	1	1	0	1	0	1	0	0	0	0	0	1	1	0	0	0	0	0	0	0	0	0	0	0	0	0	000	C15	C15	
26	26	0	1	0	1	0	1	0	0	0	0	0	1	1	0	0	1	0	1	1	0	0	0	0	1	1	0	0	0	0	0	0	0	0	0	0	0	0	0	000	C15	C34	
27	27	0	0	1	1	0	1	0	0	0	0	0	1	1	0	0	0	1	0	1	0	0	0	0	1	1	1	0	0	0	0	0	0	0	0	0	0	0	0	000	C16	C28	
28	28	1	0	1	1	0	1	0	0	0	0	0	1	1	0	0	1	1	0	0	0	0	0	0	1	1	1	0	0	0	0	0	0	0	0	0	0	0	0	000	C16	C0C	
29	29	1	1	0	1	0	1	0	0	0	0	0	1	1	1	0	1	1	1	1	1	1	1	1	0	1	0	0	0	0	0	0	0	0	0	0	0	0	0	000	C15	BFD	
30	30	0	0	0	1	0	1	0	0	0	0	0	1	1	1	0	1	0	1	0	0	0	0	0	1	1	0	0	0	0	0	0	0	0	0	0	0	0	0	000	C14	C15	
31	31	1	0	1	1	0	1	0	0	0	0	0	1	1	1	1	0	1	0	0	0	0	0	0	1	1	1	0	0	0	0	0	0	0	0	0	0	0	0	000	C16	C0B	
32	32	1	0	1	1	0	1	0	0	0	0	0	1	1	1	0	1	1	0	0	0	0	0	0	1	1	0	0	0	0	0	0	0	0	0	0	0	0	0	000	C16	C0D	
33	33	1	0	1	1	0	1	0	0	0	0	0	1	1	0	1	0	1	0	0	0	0	0	0	1	1	1	0	0	0	0	0	0	0	0	0	0	0	0	000	C16	C0A	
34	34	1	0	1	1	0	1	0	0	0	0	0	1	1	0	0	1	0	0	0	0	0	0	0	1	1	0	0	0	0	0	0	0	0	0	0	0	0	0	000	C16	C04	
35	35	1	0	1	1	0	1	0	0	0	0	0	1	1	1	1	1	0	1	1	1	1	1	0	1	1	1	0	0	0	0	0	0	0	0	0	0	0	0	000	C16	DF7	
36	36	0	0	1	1	0	1	0	0	0	0	0	1	1	0	1	1	1	1	0	0	0	0	0	1	1	1	0	0	0	0	0	0	0	0	0	0	0	0	000	C16	C1E	
37	37	0	1	1	1	0	1	0	0	0	0	0	1	1	1	0	1	1	1	0	0	0	0	0	1	1	1	0	0	0	0	0	0	0	0	0	0	0	0	000	C17	C1D	
38	38	1	1	1	1	0	1	0	0	0	0	0	1	1	0	0	1	1	1	1	1	1	1	1	0	1	0	0	0	0	0	0	0	0	0	0	0	0	0	000	C17	BFC	
39	39	1	0	0	1	0	1	1	0	0	0	0	1	1	1	1	1	1	0	0	0	0	0	0	1	1	1	0	0	0	0	0	0	0	0	0	0	0	0	000	C34	C0F	
40	40	1	0	0	1	0	1	1	0	0	0	0	1	1	1	0	1	0	1	0	0	0	0	0	1	1	1	0	0	0	0	0	0	0	0	0	0	0	0	000	C34	C15	
41	41	0	0	0	1	0	1	1	0	0	0	0	1	1	0	0	1	0	1	1	0	0	0	0	1	1	1	0	0	0	0	0	0	0	0	0	0	0	0	000	C34	C34	
42	42	1	0	0	1	0	1	1	0	0	0	0	1	1	0	0	0	1	0	1	0	0	0	0	1	1	0	0	0	0	0	0	0	0	0	0	0	0	0	000	C34	C28	
43	43	1	0	0	1	0	1	1	0	0	0	0	1	1	0	0	1	1	0	0	0	0	0	0	1	1	0	0	0	0	0	0	0	0	0	0	0	0	0	000	C34	C0C	
44	44	1	0	0	1	0	1	1	0	0	0	0	1	1	0	1	1	1	1	1	1	1	1	1	0	1	1	0	0	0	0	0	0	0	0	0	0	0	0	000	C34	BFE	
45	45	1	0	0	1	0	1	1	0	0	0	0	1	1	1	0	1	0	1	0	0	0	0	0	1	1	1	0	0	0	0	0	0	0	0	0	0	0	0	000	C34	C15	
46	46	1	0	0	1	0	1	1	0	0	0	0	1	1	0	1	0	1	0	0	0	0	0	0	1	1	1	0	0	0	0	0	0	0	0	0	0	0	0	000	C34	C0A	
47	47	1	0	0	1	0	1	1	0	0	0	0	1	1	1	0	1	1	0	0	0	0	0	0	1	1	1	0	0	0	0	0	0	0	0	0	0	0	0	000	C34	C0D	
48	48	1	0	0	1	0	1	1	0	0	0	0	1	1	0	1	0	1	0	0	0	0	0	0	1	1	0	0	0	0	0	0	0	0	0	0	0	0	0	000	C34	C0A	
49	49	1	0	0	1	0	1	1	0	0	0	0	1	1	0	0	1	0	0	0	0	0	0	0	1	1	1	0	0	0	0	0	0	0	0	0	0	0	0	000	C34	C04	
50	50	1	0	0	1	0	1	1	0	0	0	0	1	1	0	0	0	0	0	0	0	0	0	0	1	1	1	0	0	0	0	0	0	0	0	0	0	0	0	000	C34	C00	
51	51	1	1	0	1	0	1	1	0	0	0	0	1	1	1	1	1	0	1	0	0	0	0	0	1	1	1	0	0	0	0	0	0	0	0	0	0	0	0	000	C35	C17	
52	52	1	1	1	0	0	1	1	0	0	0	0	1	1	0	1	1	1	1	0	0	0	0	0	1	1	1	0	0	0	0	0	0	0	0	0	0	0	0	000	C33	C1E	
53	53	1	0	0	1	0	1	1	0	0	0	0	1	1	1	0	1	1	1	1	1	1	1	1	0	1	0	0	0	0	0	0	0	0	0	0	0	0	0	000	C34	BFD	
54	54	1	0	0	0	1	0	1	0	0	0	0	1	1	1	1	1	1	0	0	0	0	0	0	1	1	0	0	0	0	0	0	0	0	0	0	0	0	0	000	C28	C0F	
55	55	1	0	0	0	1	0	1	0	0	0	0	1	1	0	1	1	0	1	0	0	0	0	0	1	1	1	0	0	0	0	0	0	0	0	0	0	0	0	000	C28	C16	
56	56	0	0	0	0	1	0	1	0	0	0	0	1	1	1	0	1	0	1	1	0	0	0	0	1	1	1	0	0	0	0	0	0	0	0	0	0	0	0	000	C28	C35	
57	57	0	0	0	0	1	0	1	0	0	0	0	1	1	1	0	0	1	0	1	0	0	0	0	1	1	0	0	0	0	0	0	0	0	0	0	0	0	0	000	C28	C29	
58	58	1	1	1	1	0	0	1	0	0	0	0	1	1	1	0	1	1	0	0	0	0	0	0	1	1	0	0	0	0	0	0	0	0	0	0	0	0	0	000	C27	C0D	
59	59	1	0	0	0	1	0	1	0	0	0	0	1	1	1	0	1	1	1	1	1	1	1	1	0	1	0	0	0	0	0	0	0	0	0	0	0	0	0	000	C28	BFD	
60	60	1	0	0	0	1	0	1	0	0	0	0	1	1	1	0	1	0	1	0	0	0	0	0	1	1	1	0	0	0	0	0	0	0	0	0	0	0	0	000	C28	C15	
61	61	1	1	0	0	1	0	1	0	0	0	0	1	1	0	1	0	1	0	0	0	0	0	0	1	1	0	0	0	0	0	0	0	0	0	0	0	0	0	000	C29	C0A	
62	62	1	0	0	0	1	0	1	0	0	0	0	1	1	1	0	1	1	0	0	0	0	0	0	1	1	0	0	0	0	0	0	0	0	0	0	0	0	0	000	C28	C0D	
63	63	1	0	0	0	1	0	1	0	0	0	0	1	1	0	1	0	1	0	0	0	0	0	0	1	1	0	0	0	0	0	0	0	0	0	0	0	0	0	000	C28	C0A	
64	64	1	0	0	0	1	0	1	0	0	0	0	1	1	0	0	1	0	0	0	0	0	0	0	1	1	0	0	0	0	0	0	0	0	0	0	0	0	0	000	C28	C04	
65	65	1	0	0	0	1	0	1	0	0	0	0	1	1	1	0	0	0	0	0	0	0	0	0	1	1	0	0	0	0	0	0	0	0	0	0	0	0	0	000	C28	C01	
66	66	1	0	0	0	1	0	1	0	0	0	0	1	1	0	1	1	0	1	0	0	0	0	0	1	1	0	0	0	0	0	0	0	0	0	0	0	0	0	000	C28	C16	
67	67	1	0	0	0	1	0	1	0	0	0	0	1	1	1	0	1	1	1	0	0	0	0	0	1	1	0	0	0	0	0	0	0	0	0	0	0	0	0	000	C28	C1D	
68	68	1	0	0	0	1	0	1	0	0	0	0	1	1	0	0	1	1	1	1	1	1	1	1	0	1	1	0	0	0	0	0	0	0	0	0	0	0	0	000	C28	BFC	
69	69	0	0	0	1	1	0	0	0	0	0	0	1	1	1	1	1	1	0	0	0	0	0	0	1	1	1	0	0	0	0	0	0	0	0	0	0	0	0	000	C0C	C0F	
70	70	0	0	0	1	1	0	0	0	0	0	0	1	1	1	0	1	0	1	0	0	0	0	0	1	1	1	0	0	0	0	0	0	0	0	0	0	0	0	000	C0C	C15	
71	71	0	1	1	0	1	1	0	0	0	0	0	1	1	0	0	1	0	1	1	0	0	0	0	1	1	1	0	0	0	0	0	0	0	0	0	0	0	0	000	C1B	C34	
72	72	0	0	0	1	1	0	0	0	0	0	0	1	1	0	0	0	1	0	1	0	0	0	0	1	1	1	0	0	0	0	0	0	0	0	0	0	0	0	000	C0C	C28	
73	73	1	1	0	1	1	0	0	0	0	0	0	1	1	1	0	1	1	0	0	0	0	0	0	1	1	0	0	0	0	0	0	0	0	0	0	0	0	0	000	C0D	C0D	
74	74	1	0	0	1	1	0	0	0	0	0	0	1	1	0	1	1	1	1	1	1	1	1	1	0	1	1	0	0	0	0	0	0	0	0	0	0	0	0	000	C0C	BFE	
75	75	0	0	0	1	1	0	0	0	0	0	0	1	1	1	0	1	0	1	0	0	0	0	0	1	1	0	0	0	0	0	0	0	0	0	0	0	0	0	000	C0C	C15	
76	76	1	1	0	1	1	0	0	0	0	0	0	1	1	0	1	0	1	0	0	0	0	0	0	1	1	0	0	0	0	0	0	0	0	0	0	0	0	0	000	C0D	C0A	
77	77	0	0	0	1	1	0	0	0	0	0	0	1	1	0	1	1	1	0	0	0	0	0	0	1	1	0	0	0	0	0	0	0	0	0	0	0	0	0	000	C0C	C0E	
78	78	1	1	1	0	0	1	0	0	0	0	0	1	1	0	1	0	1	0	0	0	0	0	0	1	1	0	0	0	0	0	0	0	0	0	0	0	0	0	000	C13	C0A	
79	79	1	1	0	1	1	0	0	0	0	0	0	1	1	1	0	1	0	0	0	0	0	0	0	1	1	1	0	0	0	0	0	0	0	0	0	0	0	0	000	C0D	C05	
80	80	1	0	0	1	1	0	0	0	0	0	0	1	1	0	0	0	0	0	0	0	0	0	0	1	1	1	0	0	0	0	0	0	0	0	0	0	0	0	000	C0C	C00	
81	81	0	1	0	1	1	0	0	0	0	0	0	1	1	0	1	1	0	1	0	0	0	0	0	1	1	1	0	0	0	0	0	0	0	0	0	0	0	0	000	C0D	C16	
82	82	0	0	0	1	1	0	0	0	0	0	0	1	1	1	0	1	1	1	0	0	0	0	0	1	1	0	0	0	0	0	0	0	0	0	0	0	0	0	000	C0C	C1D	
83	83	1	0	0	1	1	0	0	0	0	0	0	1	1	0	0	1	1	1	1	1	1	1	1	0	1	0	0	0	0	0	0	0	0	0	0	0	0	0	000	C0C	BFC	
84	84	0	0	1	1	1	1	1	1	1	1	1	0	1	0	0	0	0	1	0	0	0	0	0	1	1	0	0	0	0	0	0	0	0	0	0	0	0	0	000	BFE	C10	
85	85	0	0	1	1	1	1	1	1	1	1	1	0	1	1	0	1	0	1	0	0	0	0	0	1	1	0	0	0	0	0	0	0	0	0	0	0	0	0	000	BFE	C15	
86	86	0	1	0	1	1	1	1	1	1	1	1	0	1	0	0	1	0	1	1	0	0	0	0	1	1	0	0	0	0	0	0	0	0	0	0	0	0	0	000	BFD	C34	
87	87	0	0	1	1	1	1	1	1	1	1	1	0	1	0	0	0	1	0	1	0	0	0	0	1	1	0	0	0	0	0	0	0	0	0	0	0	0	0	000	BFE	C28	
88	88	0	1	1	1	1	1	1	1	1	1	1	0	1	0	0	1	1	0	0	0	0	0	0	1	1	1	0	0	0	0	0	0	0	0	0	0	0	0	000	BFF	C0C	
89	89	0	0	1	1	1	1	1	1	1	1	1	0	1	1	1	1	1	1	1	1	1	1	1	0	1	1	0	0	0	0	0	0	0	0	0	0	0	0	000	BFE	BFF	
90	90	0	1	1	1	1	1	1	1	1	1	1	0	1	0	1	1	0	1	0	0	0	0	0	1	1	1	0	0	0	0	0	0	0	0	0	0	0	0	000	BFF	C16	
91	91	0	0	1	1	1	1	1	1	1	1	1	0	1	0	1	0	1	0	0	0	0	0	0	1	1	1	0	0	0	0	0	0	0	0	0	0	0	0	000	BFE	C0A	
92	92	0	1	1	1	1	1	1	1	1	1	1	0	1	0	1	1	1	0	0	0	0	0	0	1	1	1	0	0	0	0	0	0	0	0	0	0	0	0	000	BFF	C0E	
93	93	0	0	1	1	1	1	1	1	1	1	1	0	1	0	1	0	1	0	0	0	0	0	0	1	1	1	0	0	0	0	0	0	0	0	0	0	0	0	000	BFE	C0A	
94	94	0	0	1	1	1	1	1	1	1	1	1	0	1	0	0	1	0	0	0	0	0	0	0	1	1	1	0	0	0	0	0	0	0	0	0	0	0	0	000	BFE	C04	
95	95	0	1	1	1	1	1	1	1	1	1	1	0	1	1	0	0	0	0	0	0	0	0	0	1	1	1	0	0	0	0	0	0	0	0	0	0	0	0	000	BFF	C01	
96	96	0	1	0	1	1	1	1	1	1	1	1	0	1	1	1	1	0	1	0	0	0	0	0	1	1	0	0	0	0	0	0	0	0	0	0	0	0	0	000	BFD	C17	
97	97	0	0	1	1	1	1	1	1	1	1	1	0	1	1	0	1	1	1	0	0	0	0	0	1	1	1	0	0	0	0	0	0	0	0	0	0	0	0	000	BFE	C1D	
98	98	1	0	1	1	1	1	1	1	1	1	1	0	1	1	0	1	1	1	1	1	1	1	1	0	1	1	0	0	0	0	0	0	0	0	0	0	0	0	000	BFE	BFD	
99	99	1	0	1	1	0	1	0	0	0	0	0	1	1	0	0	0	0	1	0	0	0	0	0	1	1	1	0	0	0	0	0	0	0	0	0	0	0	0	000	C16	C10	
100	100	1	0	1	1	0	1	0	0	0	0	0	1	1	1	0	1	0	1	0	0	0	0	0	1	1	1	0	0	0	0	0	0	0	0	0	0	0	0	000	C16	C15	
101	101	0	0	1	1	0	1	0	0	0	0	0	1	1	0	0	1	0	1	1	0	0	0	0	1	1	1	0	0	0	0	0	0	0	0	0	0	0	0	000	C16	C34	
102	102	0	0	1	1	0	1	0	0	0	0	0	1	1	1	0	0	1	0	1	0	0	0	0	1	1	1	0	0	0	0	0	0	0	0	0	0	0	0	000	C16	C29	
103	103	1	0	1	1	0	1	0	0	0	0	0	1	1	0	0	1	1	0	0	0	0	0	0	1	1	1	0	0	0	0	0	0	0	0	0	0	0	0	000	C16	C0C	
104	104	1	0	1	1	0	1	0	0	0	0	0	1	1	1	0	1	1	1	1	1	1	1	1	0	1	0	0	0	0	0	0	0	0	0	0	0	0	0	000	C16	BFD	
105	105	0	1	0	1	0	1	0	0	0	0	0	1	1	0	1	1	0	1	0	0	0	0	0	1	1	1	0	0	0	0	0	0	0	0	0	0	0	0	000	C15	C16	
106	106	1	0	1	1	0	1	0	0	0	0	0	1	1	0	1	0	1	0	0	0	0	0	0	1	1	1	0	0	0	0	0	0	0	0	0	0	0	0	000	C16	C0A	
107	107	1	0	1	1	0	1	0	0	0	0	0	1	1	0	0	1	1	0	0	0	0	0	0	1	1	1	0	0	0	0	0	0	0	0	0	0	0	0	000	C16	C0C	
108	108	1	0	1	1	0	1	0	0	0	0	0	1	1	0	1	0	1	0	0	0	0	0	0	1	1	1	0	0	0	0	0	0	0	0	0	0	0	0	000	C16	C0A	
109	109	1	0	1	1	0	1	0	0	0	0	0	1	1	0	0	1	0	0	0	0	0	0	0	1	1	1	0	0	0	0	0	0	0	0	0	0	0	0	000	C16	C04	
110	110	1	0	1	1	0	1	0	0	0	0	0	1	1	0	0	0	0	0	0	0	0	0	0	1	1	1	0	0	0	0	0	0	0	0	0	0	0	0	000	C16	C00	
111	111	0	0	1	1	0	1	0	0	0	0	0	1	1	1	1	1	0	1	0	0	0	0	0	1	1	0	0	0	0	0	0	0	0	0	0	0	0	0	000	C16	C17	
112	112	0	0	1	1	0	1	0	0	0	0	0	1	1	1	0	1	1	1	0	0	0	0	0	1	1	1	0	0	0	0	0	0	0	0	0	0	0	0	000	C16	C1D	
113	113	1	0	1	1	0	1	0	0	0	0	0	1	1	0	0	1	1	1	1	1	1	1	1	0	1	1	0	0	0	0	0	0	0	0	0	0	0	0	000	C16	BFC	
114	114	0	0	1	0	1	0	0	0	0	0	0	1	1	1	1	1	1	0	0	0	0	0	0	1	1	1	0	0	0	0	0	0	0	0	0	0	0	0	000	C0A	C0F	
115	115	0	0	1	0	1	0	0	0	0	0	0	1	1	1	0	1	0	1	0	0	0	0	0	1	1	1	0	0	0	0	0	0	0	0	0	0	0	0	000	C0A	C15	
116	116	0	0	1	0	1	0	0	0	0	0	0	1	1	0	0	1	0	1	1	0	0	0	0	1	1	1	0	0	0	0	0	0	0	0	0	0	0	0	000	C0A	C34	
117	117	0	0	1	0	1	0	0	0	0	0	0	1	1	0	0	0	1	0	1	0	0	0	0	1	1	1	0	0	0	0	0	0	0	0	0	0	0	0	000	C0A	C28	
118	118	0	0	1	0	1	0	0	0	0	0	0	1	1	1	1	0	1	1	1	0	0	0	0	1	1	1	0	0	0	0	0	0	0	0	0	0	0	0	000	C0A	C3B	
119	119	1	0	1	0	1	0	0	0	0	0	0	1	1	1	0	1	1	1	1	1	1	1	1	0	1	1	0	0	0	0	0	0	0	0	0	0	0	0	000	C0A	BFD	
120	120	0	0	1	0	1	0	0	0	0	0	0	1	1	0	1	1	0	1	0	0	0	0	0	1	1	1	0	0	0	0	0	0	0	0	0	0	0	0	000	C0A	C16	
121	121	0	0	1	0	1	0	0	0	0	0	0	1	1	0	1	1	1	0	0	0	0	0	0	1	1	0	0	0	0	0	0	0	0	0	0	0	0	0	000	C0A	C0E	
122	122	0	0	1	0	1	0	0	0	0	0	0	1	1	1	0	1	1	0	0	0	0	0	0	1	1	1	0	0	0	0	0	0	0	0	0	0	0	0	000	C0A	C0D	
123	123	0	1	1	0	1	0	0	0	0	0	0	1	1	0	1	0	1	0	0	0	0	0	0	1	1	1	0	0	0	0	0	0	0	0	0	0	0	0	000	C0B	C0A	
124	124	1	0	1	0	1	0	0	0	0	0	0	1	1	0	0	1	0	0	0	0	0	0	0	1	1	1	0	0	0	0	0	0	0	0	0	0	0	0	000	C0A	C04	
125	125	1	0	1	0	1	0	0	0	0	0	0	1	1	1	0	0	0	0	0	0	0	0	0	1	1	1	0	0	0	0	0	0	0	0	0	0	0	0	000	C0A	C01	
126	126	0	0	1	0	1	0	0	0	0	0	0	1	1	0	1	1	0	1	0	0	0	0	0	1	1	1	0	0	0	0	0	0	0	0	0	0	0	0	000	C0A	C16	
127	127	0	0	1	0	1	0	0	0	0	0	0	1	1	1	0	1	1	1	0	0	0	0	0	1	1	0	0	0	0	0	0	0	0	0	0	0	0	0	000	C0A	C1D	
