Sample in Buffer	Sample in Window	counter17	counter16	counter15	counter14	counter13	counter12	counter11	counter10	counter9	counter8	counter7	counter6	counter5	counter4	counter3	counter2	counter1	pufout	mux1_out	clockcounter_out
0	0	3302	3215	3227	3255	3246	3262	3249	3326	3210	3179	46	1183	3200	3072	3181	000	000	0	0	000	
1	1	3303	3215	3229	3256	3247	3263	3250	3327	3210	3180	46	1184	3200	3072	3181	000	000	0	0	000	
2	2	3302	3216	3227	3256	3248	3263	3250	3326	3209	3181	46	1183	3200	3072	3181	000	000	0	0	000	
3	3	3303	3215	3227	3256	3247	3263	3250	3326	3210	3180	46	1183	3200	3072	3181	000	000	0	0	000	
4	4	3303	3216	3227	3256	3258	3262	3250	3326	3209	3181	46	1183	3200	3072	3182	000	000	0	0	000	
5	5	3303	3216	3227	3256	3247	3264	3251	3326	3209	3181	47	1182	3200	3072	3181	000	000	0	0	000	
6	6	3303	3217	3228	3256	3247	3263	3250	3583	3210	3180	47	1183	3200	3072	3182	000	000	0	0	000	
7	7	3303	3216	3228	3256	3247	3263	3250	3327	3210	3180	47	1182	3200	3072	3181	000	000	0	0	000	
8	8	3302	3215	3227	3255	3247	3262	3250	3326	3210	3179	46	1182	3200	3072	3181	000	000	0	0	000	
9	9	3307	3216	3228	3255	3246	3263	3250	3326	3210	3179	110	1182	3200	3072	3181	000	000	0	0	000	
10	10	3303	3216	3228	3256	3247	3263	3250	3327	3209	3181	110	1183	3200	3072	3182	000	000	0	0	000	
11	11	3303	3216	3228	3256	3247	3263	3250	3327	3210	3180	111	1183	3200	3072	3182	000	000	0	0	000	
12	12	3303	3216	3228	3257	3247	3263	3250	3327	3210	3181	46	1183	3200	3072	3182	000	000	0	0	000	
13	13	3303	3216	3228	3256	3247	3263	3251	3327	3210	3180	46	1183	3200	3072	3182	000	000	0	0	000	
14	14	3303	3216	3228	3256	3247	3263	3251	3328	3209	3180	46	1183	3200	3072	3182	000	000	0	0	000	
15	15	3302	3216	3227	3256	3247	3263	3250	3327	3210	3180	46	1183	3200	3072	3181	000	000	0	0	000	
16	16	3303	3216	3228	3256	3248	3264	3254	3327	3209	3180	46	1183	3200	3072	3182	000	000	0	0	000	
17	17	3302	3216	3227	3256	3246	3263	3250	3328	3210	3180	46	1183	3200	3072	3181	000	000	0	0	000	
18	18	3303	3216	3228	3256	3246	3263	3250	3327	3210	3180	110	1183	3200	3072	3182	000	000	0	0	000	
19	19	3303	3216	3229	3256	3247	3264	3250	3326	3209	3180	110	1183	3200	3072	3182	000	000	0	0	000	
20	20	3303	3217	3228	3257	3246	3263	3251	3327	3210	3181	110	1183	3200	3072	3182	000	000	0	0	000	
21	21	3303	3216	3228	3256	3248	3263	3250	3327	3210	3180	110	1183	3200	3072	3182	000	000	0	0	000	
22	22	3303	3216	3228	3256	3256	3263	3250	3327	3210	3180	110	1184	3200	3072	3182	000	000	0	0	000	
23	23	3303	3216	3228	3256	3247	3263	3250	3327	3211	3180	110	1183	3200	3072	3182	000	000	0	0	000	
24	24	3303	3216	3228	3256	3247	3263	3250	3327	3210	3180	111	1183	3200	3072	3182	000	000	0	0	000	
25	25	3303	3216	3228	3256	3247	3263	3251	3327	3210	3180	111	1183	3200	3072	3182	000	000	0	0	000	
26	26	3302	3217	3227	3255	3246	3264	3250	3326	3210	3180	110	1182	3200	3072	3182	000	000	0	0	000	
27	27	3303	3216	3228	3256	3247	3263	3250	3327	3209	3180	111	1183	3200	3072	3182	000	000	0	0	000	
28	28	3303	3216	3228	3256	3246	3263	3250	3327	3209	3180	63	1182	3200	3072	3182	000	000	0	0	000	
29	29	3303	3216	3229	3256	3248	3263	3251	3327	3210	3180	47	1184	3200	3072	3182	000	000	0	0	000	
30	30	3303	3216	3228	3255	3246	3263	3250	3327	3209	3180	46	1182	3200	3072	3182	000	000	0	0	000	
31	31	3303	3216	3227	3255	3246	3263	3250	3327	3210	3181	46	1182	3200	3072	3182	000	000	0	0	000	
32	32	3303	3216	3228	3255	3246	3263	3250	3328	3209	3180	47	1171	3200	3072	3182	000	000	0	0	000	
33	33	3304	3216	3228	3257	3247	3264	3251	3328	3210	3181	47	1184	3200	3072	3183	000	000	0	0	000	
34	34	3303	3216	3228	3256	3247	3264	3250	3072	3210	3180	47	1183	3200	3072	3182	000	000	0	0	000	
35	35	3303	3216	3229	3256	3247	3263	3251	3327	3211	3181	47	1183	3200	3072	3182	000	000	0	0	000	
36	36	3304	3216	3228	3256	3247	3264	3250	3327	3210	3180	47	1183	3200	3072	3182	000	000	0	0	000	
37	37	3303	3218	3227	3255	3246	3263	3250	3327	3210	3180	46	1184	3200	3072	3182	000	000	0	0	000	
38	38	3303	3216	3228	3256	3247	3263	3251	3327	3210	3180	48	1183	3200	3072	3182	000	000	0	0	000	
39	39	3303	3216	3227	3256	3247	3263	3250	3327	3209	3180	48	1183	3200	3072	3182	000	000	0	0	000	
40	40	3303	3217	3227	3256	3248	3263	3251	3328	3215	3180	47	1183	3200	3072	3182	000	000	0	0	000	
41	41	3303	3216	3228	3256	3247	3263	3251	3327	3211	3180	47	1183	3200	3072	3182	000	000	0	0	000	
42	42	3303	3216	3229	3255	3247	3263	3251	3327	3209	3180	1072	1183	3200	3072	3182	000	000	0	0	000	
43	43	3303	3216	3228	3256	3247	3263	3250	3327	3211	3180	1071	1184	3200	3072	3182	000	000	0	0	000	
44	44	3303	3216	3227	3256	3248	3263	3250	3327	3209	3180	46	1182	3200	3072	3183	000	000	0	0	000	
45	45	3303	3216	3228	3256	3247	3265	3250	3327	3210	3180	47	1183	3200	3072	3182	000	000	0	0	000	
46	46	3303	3216	3228	3255	3247	3263	3250	3327	3209	3180	47	1183	3200	3072	3182	000	000	0	0	000	
47	47	3303	3216	3228	3256	3247	3263	3250	3327	3210	3180	47	1171	3200	3072	3182	000	000	0	0	000	
48	48	3303	3217	3228	3256	3247	3264	3250	3327	3211	3180	47	1183	3200	3072	3182	000	000	0	0	000	
49	49	3303	3216	3228	3256	3262	3263	3250	3327	3210	3181	47	1182	3200	3072	3182	000	000	0	0	000	
50	50	3304	3217	3228	3256	3247	3264	3251	3328	3210	3180	47	1183	3200	3072	3183	000	000	0	0	000	
51	51	3303	3216	3228	3256	3247	3263	3250	3327	3211	3180	47	1183	3200	3072	3182	000	000	0	0	000	
52	52	3303	3216	3228	3256	3246	3263	3250	3327	3209	3180	47	1171	3200	3072	3182	000	000	0	0	000	
53	53	3303	3216	3228	3257	3246	3263	3250	3327	3209	3180	48	1184	3200	3072	3182	000	000	0	0	000	
54	54	3303	3216	3228	3256	3246	3263	3250	3327	3210	3180	47	1183	3200	3072	3182	000	000	0	0	000	
55	55	3303	3216	3228	3256	3246	3263	3250	3583	3209	3180	46	1183	3200	3072	3182	000	000	0	0	000	
56	56	3304	3216	3228	3256	3247	3264	3250	3327	3210	3180	47	1183	3200	3072	3182	000	000	0	0	000	
57	57	3303	3216	3228	3255	3246	3263	3250	3327	3210	3180	47	1182	3200	3072	3183	000	000	0	0	000	
58	58	3304	3216	3228	3256	3247	3264	3251	3328	3210	3180	48	1183	3200	3072	3183	000	000	0	0	000	
59	59	3303	3216	3228	3256	3246	3264	3250	3329	3209	3180	47	1183	3200	3072	3183	000	000	0	0	000	
60	60	3303	3216	3229	3255	3246	3263	3250	3312	3210	3180	47	1183	3200	3072	3187	000	000	0	0	000	
61	61	3304	3216	3228	3256	3247	3265	3251	3328	3209	3180	48	1183	3200	3072	3183	000	000	0	0	000	
62	62	3303	3216	3228	3255	3247	3263	3250	3327	3210	3180	47	1171	3200	3072	3183	000	000	0	0	000	
63	63	3304	3217	3228	3256	3247	3264	3251	3327	3209	3180	47	1183	3200	3072	3182	000	000	0	0	000	
64	64	3303	3216	3228	3256	3247	3264	3250	3327	3209	3180	47	1183	3200	3072	3182	000	000	0	0	000	
65	65	3303	3216	3228	3256	3247	3265	3250	3327	3210	3180	48	1183	3200	3072	3182	000	000	0	0	000	
66	66	3304	3216	3228	3256	3247	3263	3250	3327	3209	3181	47	1183	3200	3072	3184	000	000	0	0	000	
67	67	3303	3216	3228	3257	3247	3263	3250	3327	3210	3180	47	1182	3200	3072	3184	000	000	0	0	000	
68	68	3303	3217	3228	3257	3247	3264	3250	3327	3211	3180	47	1183	3200	3072	3183	000	000	0	0	000	
69	69	3303	3216	3229	3255	3247	3263	3250	3327	3210	3180	47	1182	3200	3072	3183	000	000	0	0	000	
70	70	3303	3216	3228	3255	3247	3263	3250	3327	3210	3180	46	1182	3200	3072	3182	000	000	0	0	000	
71	71	3303	3217	3228	3256	3247	3264	3250	3328	3211	3180	63	1182	3200	3072	3182	000	000	0	0	000	
72	72	3303	3216	3228	3256	3232	3265	3250	3327	3210	3180	47	1182	3200	3072	3182	000	000	0	0	000	
73	73	3303	3216	3228	3256	3247	3265	3250	3329	3210	3180	47	1183	3200	3072	3183	000	000	0	0	000	
74	74	3303	3216	3228	3255	3247	3263	3250	3327	3210	3180	47	1182	3200	3072	3182	000	000	0	0	000	
75	75	3304	3216	3228	3256	3247	3264	3254	3327	3210	3180	47	1183	3200	3072	3183	000	000	0	0	000	
76	76	3304	3216	3228	3256	3247	3263	3250	3327	3212	3180	47	1182	3200	3072	3182	000	000	0	0	000	
77	77	3304	3217	3228	3256	3247	3264	3251	3328	3210	3180	47	1183	3200	3072	3184	000	000	0	0	000	
78	78	3303	3216	3228	3256	3247	3263	3251	3327	3210	3180	47	1182	3200	3072	3182	000	000	0	0	000	
79	79	3304	3216	3228	3256	3247	3265	3251	3327	3211	3180	47	1184	3200	3072	3182	000	000	0	0	000	
80	80	3303	3216	3228	3256	3247	3264	3251	3328	3210	3180	47	1183	3200	3072	3183	000	000	0	0	000	
81	81	3304	3217	3228	3256	3247	3264	3251	3328	3210	3180	47	1183	3200	3072	3183	000	000	0	0	000	
82	82	3303	3217	3228	3256	3247	3264	3251	3328	3211	3180	47	1182	3200	3072	3182	000	000	0	0	000	
83	83	3304	3216	3228	3256	3247	3264	3251	3328	3210	3180	111	1183	3200	3072	3183	000	000	0	0	000	
84	84	3304	3216	3228	3256	3247	3264	3251	3328	3210	3180	48	1183	3200	3072	3183	000	000	0	0	000	
85	85	3304	3217	3228	3256	3247	3263	3251	3328	3211	3180	47	1183	3200	3072	3184	000	000	0	0	000	
86	86	3304	3216	3228	3257	3247	3264	3251	3328	3210	3180	47	1183	3200	3072	3183	000	000	0	0	000	
87	87	3303	3216	3228	3255	3247	3264	3250	3327	3210	3180	47	1183	3200	3072	3182	000	000	0	0	000	
88	88	3304	3216	3228	3256	3247	3264	3251	3329	3211	3180	47	1184	3200	3072	3187	000	000	0	0	000	
89	89	3304	3217	3228	3255	3247	3264	3251	3328	3210	3180	47	1183	3200	3072	3183	000	000	0	0	000	
90	90	3304	3216	3228	3255	3247	3264	3254	3328	3211	3180	47	1183	3200	3072	3183	000	000	0	0	000	
91	91	3304	3217	3228	3255	3247	3264	3251	3327	3211	3180	47	1183	3200	3072	3183	000	000	0	0	000	
92	92	3303	3217	3228	3255	3247	3264	3251	3327	3211	3181	47	1183	3200	3072	3183	000	000	0	0	000	
93	93	3303	3217	3229	3255	3247	3264	3251	3327	3212	3181	47	1182	3200	3072	3187	000	000	0	0	000	
94	94	3304	3217	3228	3256	3247	3264	3251	3328	3210	3180	47	1183	3200	3072	3183	000	000	0	0	000	
95	95	3304	3218	3228	3257	3247	3264	3255	3329	3210	3180	47	1183	3200	3072	3183	000	000	0	0	000	
96	96	3303	3217	3228	3255	3247	3264	3250	3327	3210	3180	1072	1182	3200	3072	3182	000	000	0	0	000	
97	97	3303	3216	3228	3255	3247	3264	3250	3327	3209	3180	47	1182	3200	3072	3182	000	000	0	0	000	
98	98	3303	3216	3228	3256	3247	3264	3250	3329	3210	3180	47	1182	3200	3072	3182	000	000	0	0	000	
99	99	3303	3217	3228	3257	3258	3264	3250	3328	3212	3180	47	1183	3200	3072	3182	000	000	0	0	000	
100	100	3303	3217	3228	3256	3247	3264	3250	3328	3210	3180	47	1184	3200	3072	3182	000	000	0	0	000	
101	101	3304	3216	3228	3256	3247	3264	3250	3328	3210	3180	47	1183	3200	3072	3182	000	000	0	0	000	
102	102	3303	3216	3228	3255	3247	3263	3250	3327	3210	3180	46	1182	3200	3072	3182	000	000	0	0	000	
103	103	3303	3216	3228	3256	3247	3263	3250	3327	3209	3180	48	1182	3200	3072	3182	000	000	0	0	000	
104	104	3303	3217	3228	3256	3247	3264	3250	3327	3209	3180	47	1183	3200	3072	3182	000	000	0	0	000	
105	105	3304	3217	3228	3257	3247	3263	3250	3327	3210	3180	47	1183	3200	3072	3182	000	000	0	0	000	
106	106	3303	3217	3228	3256	3247	3264	3250	3327	3209	3180	47	1182	3200	3072	3182	000	000	0	0	000	
107	107	3303	3216	3229	3256	3262	3263	3250	3327	3210	3180	1073	1182	3200	3072	3182	000	000	0	0	000	
108	108	3304	3217	3228	3256	3247	3264	3251	3327	3210	3180	47	1183	3200	3072	3183	000	000	0	0	000	
109	109	3304	3216	3228	3256	3247	3264	3250	3328	3211	3180	47	1184	3200	3072	3183	000	000	0	0	000	
110	110	3304	3216	3228	3255	3247	3263	3250	3327	3211	3180	47	1184	3200	3072	3182	000	000	0	0	000	
111	111	3304	3217	3229	3256	3247	3264	3251	3327	3210	3180	47	1183	3200	3072	3182	000	000	0	0	000	
112	112	3303	3216	3229	3256	3247	3265	3250	3327	3211	3180	47	1183	3200	3072	3182	000	000	0	0	000	
113	113	3303	3217	3228	3256	3247	3264	3251	3327	3211	3180	47	1183	3200	3072	3183	000	000	0	0	000	
114	114	3303	3217	3228	3256	3247	3264	3250	3327	3210	3180	47	1182	3200	3072	3183	000	000	0	0	000	
115	115	3304	3218	3228	3256	3249	3264	3251	3312	3210	3180	47	1184	3200	3072	3183	000	000	0	0	000	
116	116	3304	3217	3228	3256	3249	3265	3250	3327	3210	3180	47	1183	3200	3072	3183	000	000	0	0	000	
117	117	3304	3217	3228	3256	3248	3264	3251	3328	3210	3180	47	1183	3200	3072	3183	000	000	0	0	000	
118	118	3303	3217	3228	3256	3248	3264	3255	3327	3210	3180	47	1183	3200	3072	3182	000	000	0	0	000	
119	119	3304	3217	3228	3256	3248	3264	3251	3329	3211	3180	47	1184	3200	3072	3183	000	000	0	0	000	
120	120	3304	3217	3228	3256	3248	3264	3251	3329	3210	3180	47	1183	3200	3072	3182	000	000	0	0	000	
121	121	3303	3216	3228	3256	3247	3265	3250	3327	3211	3180	47	1183	3200	3072	3182	000	000	0	0	000	
122	122	3304	3216	3228	3256	3247	3264	3251	3327	3210	3180	47	1183	3200	3072	3183	000	000	0	0	000	
123	123	3304	3216	3228	3256	3247	3264	3251	3327	3210	3180	47	1183	3200	3072	3183	000	000	0	0	000	
124	124	3304	3216	3228	3256	3247	3264	3251	3327	3211	3180	47	1183	3200	3072	3183	000	000	0	0	000	
125	125	3304	3217	3228	3256	3247	3264	3251	3328	3210	3180	111	1183	3200	3072	3183	000	000	0	0	000	
126	126	3304	3217	3229	3256	3248	3264	3251	3328	3210	3182	48	1183	3200	3072	3183	000	000	0	0	000	
127	127	3304	3217	3228	3256	3248	3264	3251	3327	3211	3180	47	1183	3200	3072	3184	000	000	0	0	000	
128	128	3304	3217	3228	3256	3247	3264	3251	3327	3210	3180	47	1183	3200	3072	3182	000	000	0	0	000	
129	129	3304	3217	3228	3256	3247	3264	3251	3327	3210	3180	47	1171	3200	3072	3182	000	000	0	0	000	
130	130	3304	3216	3228	3255	3247	3265	3250	3327	3210	3180	46	1182	3200	3072	3182	000	000	0	0	000	
131	131	3304	3217	3228	3256	3247	3264	3251	3327	3210	3180	47	1184	3200	3072	3183	000	000	0	0	000	
132	132	3304	3217	3228	3256	3247	3264	3251	3327	3211	3181	1073	1184	3200	3072	3183	000	000	0	0	000	
133	133	3304	3217	3228	3256	3247	3264	3251	3328	3211	3182	47	1183	3200	3072	3183	000	000	0	0	000	
134	134	3304	3217	3228	3257	3247	3264	3251	3327	3210	3181	47	1183	3200	3072	3183	000	000	0	0	000	
135	135	3304	3217	3229	3256	3247	3264	3251	3328	3210	3182	47	1183	3200	3072	3183	000	000	0	0	000	
136	136	3303	3216	3228	3256	3247	3264	3251	3327	3211	3180	47	1183	3200	3072	3184	000	000	0	0	000	
137	137	3304	3218	3228	3256	3247	3265	3251	3328	3210	3181	47	1183	3200	3072	3183	000	000	0	0	000	
138	138	3303	3216	3228	3256	3246	3264	3250	3327	3210	3180	46	1182	3200	3072	3183	000	000	0	0	000	
139	139	3303	3217	3228	3256	3247	3264	3251	3328	3211	3181	47	1183	3200	3072	3183	000	000	0	0	000	
140	140	3304	3217	3228	3256	3247	3265	3251	3328	3210	3182	47	1183	3200	3072	3183	000	000	0	0	000	
141	141	3304	3218	3228	3256	3247	3264	3251	3328	3211	3180	47	1183	3200	3072	3183	000	000	0	0	000	
142	142	3303	3216	3228	3256	3247	3264	3250	3327	3210	3180	46	1183	3200	3072	3182	000	000	0	0	000	
143	143	3304	3216	3228	3256	3247	3264	3251	3327	3210	3180	47	1183	3200	3072	3183	000	000	0	0	000	
144	144	3304	3216	3228	3256	3247	3264	3251	3328	3211	3180	1072	1183	3200	3072	3183	000	000	0	0	000	
145	145	3304	3216	3228	3256	3247	3264	3251	3328	3210	3180	47	1184	3200	3072	3182	000	000	0	0	000	
146	146	3303	3216	3228	3256	3247	3264	3251	3328	3210	3180	47	1183	3200	3072	3183	000	000	0	0	000	
147	147	3303	3216	3228	3256	3247	3264	3250	3328	3211	3180	47	1182	3200	3072	3182	000	000	0	0	000	
148	148	3304	3216	3229	3256	3247	3264	3251	3329	3210	3181	47	1183	3200	3072	3183	000	000	0	0	000	
149	149	3304	3216	3228	3256	3247	3264	3251	3328	3210	3180	47	1171	3200	3072	3183	000	000	0	0	000	
150	150	3304	3218	3228	3256	3247	3264	3251	3328	3211	3180	47	1183	3200	3072	3183	000	000	0	0	000	
151	151	3304	3217	3228	3256	3247	3264	3251	3328	3210	3180	47	1183	3200	3072	3184	000	000	0	0	000	
152	152	3304	3217	3228	3256	3247	3264	3251	3328	3211	3180	111	1183	3200	3072	3183	000	000	0	0	000	
153	153	3304	3217	3229	3256	3247	3265	3251	3328	3210	3182	111	1183	3200	3072	3183	000	000	0	0	000	
154	154	3304	3216	3228	3256	3247	3264	3251	3328	3210	3181	111	1183	3200	3072	3183	000	000	0	0	000	
155	155	3304	3216	3228	3256	3247	3264	3250	3327	3211	3180	111	1183	3200	3072	3183	000	000	0	0	000	
156	156	3303	3216	3227	3256	3247	3264	3250	3327	3210	3180	110	1183	3200	3072	3182	000	000	0	0	000	
157	157	3304	3216	3228	3256	3247	3264	3251	3327	3210	3181	1135	1183	3200	3072	3184	000	000	0	0	000	
158	158	3304	3217	3228	3256	3247	3264	3250	3327	3212	3180	111	1183	3200	3072	3184	000	000	0	0	000	
159	159	3304	3216	3228	3256	3247	3264	3250	3327	3210	3180	1087	1183	3200	3072	3182	000	000	0	0	000	
160	160	3304	3216	3228	3256	3247	3264	3250	3327	3210	3180	47	1183	3200	3072	3183	000	000	0	0	000	
161	161	3304	3217	3228	3256	3247	3264	3250	3328	3211	3180	47	1182	3200	3072	3183	000	000	0	0	000	
162	162	3304	3216	3228	3256	3247	3266	3251	3328	3210	3182	111	1183	3200	3072	3183	000	000	0	0	000	
163	163	3304	3216	3229	3256	3247	3264	3251	3327	3210	3181	111	1183	3200	3072	3183	000	000	0	0	000	
164	164	3304	3217	3228	3256	3247	3265	3251	3327	3211	3180	111	1183	3200	3072	3184	000	000	0	0	000	
165	165	3304	3217	3228	3257	3248	3265	3251	3328	3210	3182	111	1183	3200	3072	3183	000	000	0	0	000	
166	166	3303	3216	3229	3256	3247	3264	3251	3327	3215	3180	47	1183	3200	3072	3184	000	000	0	0	000	
167	167	3304	3216	3228	3256	3247	3265	3254	3328	3210	3180	47	1183	3200	3072	3184	000	000	0	0	000	
168	168	3304	3216	3228	3257	3247	3264	3250	3328	3209	3180	47	1183	3200	3072	3182	000	000	0	0	000	
169	169	3304	3216	3228	3256	3247	3264	3250	3327	3210	3180	47	1184	3200	3072	3182	000	000	0	0	000	
170	170	3304	3216	3228	3255	3247	3264	3251	3327	3211	3180	47	1183	3200	3072	3182	000	000	0	0	000	
171	171	3304	3217	3229	3256	3248	3265	3251	3328	3211	3181	47	1184	3200	3072	3183	000	000	0	0	000	
172	172	3304	3217	3228	3256	3247	3267	3251	3328	3211	3181	47	1183	3200	3072	3184	000	000	0	0	000	
173	173	3304	3216	3228	3256	3247	3265	3251	3327	3210	3181	47	1183	3200	3072	3182	000	000	0	0	000	
174	174	3304	3216	3228	3256	3247	3264	3251	3312	3210	3180	1071	1183	3200	3072	3182	000	000	0	0	000	
175	175	3303	3217	3229	3256	3246	3264	3250	3327	3210	3180	46	1171	3200	3072	3182	000	000	0	0	000	
176	176	3304	3216	3229	3256	3247	3264	3251	3329	3210	3180	47	1184	3200	3072	3183	000	000	0	0	000	
177	177	3303	3216	3229	3256	3247	3264	3250	3327	3210	3180	47	1183	3200	3072	3182	000	000	0	0	000	
178	178	3303	3216	3229	3255	3247	3264	3251	3327	3211	3180	47	1183	3200	3072	3183	000	000	0	0	000	
179	179	3304	3216	3228	3256	3247	3264	3251	3328	3210	3180	47	1183	3200	3072	3183	000	000	0	0	000	
180	180	3304	3216	3229	3256	3247	3264	3251	3329	3210	3181	47	1183	3200	3072	3183	000	000	0	0	000	
181	181	3304	3216	3228	3256	3247	3264	3251	3327	3211	3180	47	1183	3200	3072	3183	000	000	0	0	000	
182	182	3304	3216	3228	3256	3248	3264	3251	3327	3210	3181	47	1183	3200	3072	3183	000	000	0	0	000	
183	183	3304	3216	3228	3256	3247	3264	3251	3327	3211	3181	47	1183	3200	3072	3182	000	000	0	0	000	
184	184	3304	3216	3228	3256	3248	3264	3251	3328	3210	3181	111	1183	3200	3072	3183	000	000	0	0	000	
185	185	3304	3217	3230	3257	3248	3265	3251	3329	3211	3181	111	1184	3200	3072	3183	000	000	0	0	000	
186	186	3303	3216	3228	3256	3247	3264	3250	3327	3211	3180	110	1183	3200	3072	3182	000	000	0	0	000	
187	187	3304	3216	3228	3256	3247	3264	3251	3328	3210	3181	111	1183	3200	3072	3183	000	000	0	0	000	
188	188	3304	3217	3229	3257	3249	3265	3251	3328	3211	3181	111	1184	3200	3072	3183	000	000	0	0	000	
189	189	3303	3217	3229	3256	3247	3264	3250	3327	3212	3180	110	1184	3200	3072	3182	000	000	0	0	000	
190	190	3303	3216	3228	3256	3247	3264	3250	3327	3210	3180	39	1183	3200	3072	3187	000	000	0	0	000	
191	191	3303	3216	3228	3256	3247	3264	3255	3327	3210	3180	46	1183	3200	3072	3182	000	000	0	0	000	
192	192	3303	3217	3228	3256	3247	3264	3251	3327	3211	3180	47	1183	3200	3072	3183	000	000	0	0	000	
193	193	3304	3216	3228	3256	3247	3264	3251	3327	3210	3181	47	1183	3200	3072	3182	000	000	0	0	000	
194	194	3304	3216	3228	3256	3247	3264	3251	3327	3210	3180	47	1183	3200	3072	3183	000	000	0	0	000	
195	195	3304	3216	3228	3256	3247	3264	3255	3327	3212	3180	48	1183	3200	3072	3183	000	000	0	0	000	
196	196	3304	3216	3229	3256	3248	3265	3251	3328	3210	3180	47	1183	3200	3072	3183	000	000	0	0	000	
197	197	3303	3216	3228	3256	3247	3264	3251	3327	3210	3180	47	1184	3200	3072	3182	000	000	0	0	000	
198	198	3303	3216	3228	3256	3247	3264	3251	3327	3212	3180	47	1183	3200	3072	3183	000	000	0	0	000	
199	199	3303	3216	3228	3256	3247	3264	3251	3327	3210	3180	47	1183	3200	3072	3182	000	000	0	0	000	
200	200	3303	3216	3228	3256	3247	3264	3251	3328	3211	3180	111	1183	3200	3072	3183	000	000	0	0	000	
