Sample in Buffer	Sample in Window	counter14	counter13	counter12	counter11	counter10	counter9	counter8	counter7	counter6	counter5	counter4	counter3	counter2	counter1	counter0	pufout	mux1_out	clockcounter_out
0	0	1	1	1	0	0	1	0	0	0	1	1	1	0	1	0	0	0	000	
1	1	0	0	1	1	0	1	0	1	0	1	1	0	0	0	0	0	0	000	
2	2	1	1	1	0	0	0	0	0	1	1	1	1	0	1	1	1	1	000	
3	3	1	1	1	0	0	1	0	1	1	1	1	0	0	0	0	0	0	000	
4	4	0	0	1	0	0	1	0	1	0	1	1	0	1	0	0	0	0	000	
5	5	1	1	1	0	0	0	0	0	0	1	1	0	0	0	0	0	0	000	
6	6	1	1	0	0	0	0	1	0	0	0	1	1	0	1	1	0	1	000	
7	7	1	1	0	0	0	0	1	1	0	0	1	0	0	1	1	0	1	000	
8	8	1	0	0	0	0	0	1	1	0	0	1	0	0	1	0	0	1	000	
9	9	1	0	1	0	0	1	1	1	0	1	1	0	1	1	1	0	1	000	
10	10	1	0	0	0	0	0	1	0	0	1	1	0	1	1	1	0	1	000	
11	11	1	0	0	1	0	0	1	0	1	0	1	1	0	1	1	0	1	000	
12	12	1	0	1	1	0	0	1	0	0	1	1	0	1	1	1	0	1	000	
13	13	1	0	1	1	0	0	1	0	0	1	1	0	1	1	1	0	1	000	
14	14	1	0	1	0	0	1	1	0	0	1	1	0	1	1	1	1	1	000	
15	15	1	0	1	0	0	1	1	0	0	1	1	0	1	1	1	1	1	000	
16	16	1	1	1	0	0	1	1	1	1	1	1	0	1	1	1	0	1	000	
17	17	1	1	0	0	0	0	1	0	1	1	1	0	1	1	1	1	1	000	
18	18	1	1	0	1	0	0	1	0	1	0	1	1	0	1	0	1	1	000	
19	19	1	1	0	1	0	0	1	0	1	0	1	1	0	1	1	0	1	000	
20	20	1	1	0	1	0	0	1	1	1	0	1	1	0	1	1	1	1	000	
21	21	1	0	1	0	0	0	1	0	0	1	1	0	0	0	1	0	0	000	
22	22	0	1	0	1	1	0	1	0	1	1	1	1	0	1	1	1	1	000	
23	23	0	1	0	1	1	0	0	1	1	0	0	1	0	1	0	0	0	000	
24	24	1	1	1	1	0	1	1	0	0	1	1	1	0	1	1	0	0	000	
25	25	1	1	0	1	1	0	1	0	1	1	1	1	0	1	1	0	0	000	
26	26	1	1	0	1	1	0	1	0	1	0	1	1	0	1	0	0	0	000	
27	27	0	1	1	1	1	0	0	0	1	0	1	1	0	1	1	0	0	000	
28	28	0	1	0	1	1	0	0	0	1	0	1	1	0	0	0	0	0	000	
29	29	1	0	1	0	0	1	1	1	0	1	1	0	0	0	1	0	0	000	
30	30	1	0	1	1	1	0	1	0	0	0	1	1	0	1	1	0	0	000	
31	31	1	1	0	1	1	0	0	0	1	0	1	1	1	1	1	1	1	000	
32	32	1	0	1	0	1	0	1	0	0	1	1	0	0	1	1	0	0	000	
33	33	1	0	1	0	0	0	1	0	1	1	1	0	0	1	1	0	0	000	
34	34	1	1	0	1	1	0	1	0	0	0	1	1	0	1	1	0	0	000	
35	35	1	0	1	0	1	0	1	0	1	1	1	0	0	0	0	0	0	000	
36	36	0	1	1	1	1	0	0	0	0	1	0	1	0	1	1	0	0	000	
37	37	1	0	1	1	1	0	1	1	0	1	1	0	0	0	1	0	0	000	
38	38	1	1	0	0	0	1	1	1	0	1	0	0	0	0	1	0	0	000	
39	39	1	0	1	1	1	0	0	0	0	0	0	0	0	1	1	0	0	000	
40	40	1	0	1	1	1	0	1	0	0	1	1	0	0	1	1	0	0	000	
41	41	1	0	1	1	1	0	1	0	0	1	1	1	0	1	1	0	1	000	
42	42	0	0	1	1	1	0	1	0	0	1	1	1	1	1	1	0	1	000	
43	43	1	1	1	0	0	1	1	0	0	1	1	0	0	0	0	0	0	000	
44	44	0	1	1	1	1	0	0	0	0	0	1	1	1	1	1	1	1	000	
45	45	1	0	1	0	0	0	1	0	0	0	1	0	0	0	0	0	0	000	
46	46	1	0	0	0	0	1	1	0	0	1	1	0	0	1	0	0	0	000	
47	47	1	0	1	1	0	0	1	0	0	1	1	0	0	1	1	0	0	000	
48	48	1	1	1	0	1	0	1	0	1	1	1	0	0	1	1	0	0	000	
49	49	1	0	1	0	0	0	1	0	1	1	1	0	0	0	1	0	0	000	
50	50	1	0	1	0	0	1	1	0	1	1	1	0	0	1	1	0	0	000	
51	51	0	1	1	1	1	0	1	0	0	0	0	1	0	1	1	0	1	000	
52	52	0	0	1	1	0	0	1	0	0	0	0	1	0	1	1	1	1	000	
53	53	1	0	1	1	0	0	1	0	0	1	1	1	0	1	1	0	1	000	
54	54	1	0	1	1	0	0	1	0	0	1	1	0	0	1	1	0	1	000	
55	55	1	0	1	0	0	0	1	0	0	1	1	0	0	1	1	1	1	000	
56	56	1	0	0	1	1	0	1	1	0	1	1	1	0	1	0	0	1	000	
57	57	1	1	1	0	1	0	1	0	0	0	1	1	1	1	0	0	1	000	
58	58	1	0	1	0	0	0	1	0	1	1	1	0	0	1	1	0	1	000	
59	59	0	0	1	1	1	0	1	0	0	1	0	1	0	1	1	0	0	000	
60	60	1	0	1	1	1	0	1	0	0	1	1	1	0	1	1	1	1	000	
61	61	1	0	1	1	1	0	1	0	0	1	1	1	0	1	1	0	1	000	
62	62	1	1	1	1	1	0	1	0	0	1	1	1	0	1	1	1	1	000	
63	63	1	0	1	0	0	0	1	0	0	0	1	0	0	1	1	1	1	000	
64	64	1	0	1	1	0	1	1	0	0	1	1	1	1	0	1	0	1	000	
65	65	1	0	1	1	0	0	1	0	0	1	1	0	0	1	1	0	1	000	
66	66	0	0	1	1	0	0	1	0	1	1	1	1	1	0	1	1	1	000	
67	67	1	0	1	1	0	0	1	0	0	1	1	0	0	1	1	0	1	000	
68	68	0	0	1	1	1	0	1	0	1	1	1	1	0	1	1	1	1	000	
69	69	0	0	1	1	0	0	1	0	0	1	1	1	0	1	1	0	1	000	
70	70	1	0	1	1	0	1	1	0	0	1	1	1	0	1	1	1	1	000	
71	71	1	0	1	0	0	1	1	0	0	1	1	0	0	1	1	1	1	000	
72	72	1	0	1	1	0	0	1	0	0	1	1	1	0	1	1	0	1	000	
73	73	1	0	1	1	1	0	1	0	0	1	1	1	0	1	0	0	1	000	
74	74	0	0	1	1	1	0	1	0	1	1	1	1	0	1	1	0	1	000	
75	75	0	0	1	1	1	0	1	0	0	1	1	0	0	1	1	1	1	000	
76	76	1	0	1	1	1	0	1	0	0	1	1	1	0	1	1	0	1	000	
77	77	0	0	1	1	1	0	1	0	0	1	1	1	0	1	0	1	1	000	
78	78	0	1	1	1	0	0	1	0	0	1	1	1	0	1	0	1	1	000	
79	79	1	1	1	0	0	0	1	0	0	1	1	1	0	1	0	1	1	000	
80	80	0	1	0	1	1	1	1	1	1	0	1	0	1	0	0	0	0	000	
81	81	1	1	1	1	0	0	1	0	1	1	1	1	0	1	0	0	1	000	
82	82	1	1	1	0	0	1	1	0	0	1	0	1	0	1	0	0	1	000	
83	83	1	1	0	1	1	0	0	1	1	0	1	0	1	0	0	0	1	000	
84	84	1	1	1	1	0	1	1	1	0	1	1	0	0	1	1	0	0	000	
85	85	1	0	1	1	0	0	1	0	0	1	0	1	0	1	1	0	0	000	
86	86	1	0	1	1	0	1	1	0	0	1	0	1	0	1	1	0	0	000	
87	87	1	0	1	1	0	0	1	0	0	1	0	1	0	1	1	0	0	000	
88	88	1	1	1	0	1	0	1	0	0	1	0	0	0	1	0	0	0	000	
89	89	1	0	1	0	0	1	1	0	0	1	0	1	0	1	1	0	0	000	
90	90	1	0	1	0	0	0	1	0	0	1	1	0	0	1	0	0	0	000	
91	91	1	0	1	0	1	0	1	1	1	0	1	0	0	1	0	0	1	000	
92	92	0	0	1	1	1	0	1	1	1	0	0	0	1	0	0	1	1	000	
93	93	0	1	1	1	1	0	0	1	1	0	1	0	1	0	0	0	1	000	
94	94	1	1	1	1	1	0	1	1	1	0	1	0	0	1	0	0	1	000	
95	95	1	1	1	1	1	0	0	1	1	0	1	0	1	0	0	0	1	000	
96	96	0	1	0	1	1	0	0	1	1	0	1	0	1	0	0	0	1	000	
97	97	1	0	1	0	1	0	1	1	1	0	1	0	0	1	1	0	1	000	
98	98	1	0	1	0	1	1	1	0	1	1	0	1	0	1	0	0	0	000	
99	99	1	0	0	0	1	0	1	1	1	1	1	0	0	0	0	1	1	000	
100	100	1	1	0	1	1	0	1	1	1	1	1	0	0	0	0	1	1	000	
101	101	1	0	1	0	0	0	1	0	0	1	1	0	0	0	0	0	0	000	
102	102	1	0	1	0	0	0	1	1	0	1	1	0	0	0	0	0	1	000	
103	103	0	1	0	1	1	1	0	1	0	0	0	0	1	0	1	1	1	000	
104	104	1	0	1	0	0	0	1	0	0	1	1	1	0	1	0	0	0	000	
105	105	1	0	1	0	0	1	1	1	0	1	1	0	1	0	0	0	1	000	
106	106	1	0	1	1	1	0	1	1	0	0	1	1	0	0	0	0	1	000	
107	107	1	1	1	0	1	0	1	0	0	1	1	1	0	1	0	0	0	000	
108	108	1	0	1	1	0	0	1	0	0	1	1	1	0	1	0	0	0	000	
109	109	1	0	1	1	1	1	0	1	1	1	0	1	1	0	0	0	1	000	
110	110	1	0	1	1	0	0	1	1	0	1	1	1	0	1	0	0	1	000	
111	111	1	0	1	1	1	0	0	1	0	1	1	0	0	0	1	1	1	000	
112	112	0	1	0	1	1	1	0	0	1	0	1	0	1	0	1	0	0	000	
113	113	1	0	1	1	1	1	0	1	0	0	1	1	0	0	0	0	0	000	
114	114	1	1	0	1	1	1	0	1	1	0	1	0	1	0	0	0	0	000	
115	115	0	1	0	0	1	1	1	1	1	0	0	0	1	1	1	0	1	000	
116	116	1	1	1	1	1	1	0	0	1	0	1	1	1	0	0	0	0	000	
117	117	1	1	0	1	1	1	0	0	1	0	1	0	1	0	0	0	0	000	
118	118	1	1	1	1	1	1	0	0	1	0	1	1	0	0	0	0	0	000	
119	119	1	0	1	0	0	0	0	0	1	0	1	1	0	0	1	0	0	000	
120	120	1	1	1	0	0	0	0	0	0	0	1	1	1	0	0	0	0	000	
121	121	1	0	1	1	1	1	0	1	1	0	1	0	1	1	0	0	0	000	
122	122	1	0	1	0	1	0	1	0	1	1	1	1	1	0	0	1	1	000	
123	123	1	0	1	0	0	0	1	0	0	1	1	1	0	0	0	1	1	000	
124	124	0	0	1	0	1	1	1	1	1	0	1	1	1	0	0	1	1	000	
125	125	1	0	1	0	1	0	1	0	0	1	1	1	0	0	0	0	1	000	
126	126	1	1	1	0	1	0	1	0	0	1	1	1	0	0	0	0	1	000	
127	127	0	1	1	1	1	1	0	1	0	0	1	1	0	1	0	0	0	000	
128	128	0	1	1	0	1	0	1	0	0	0	1	1	0	0	0	0	0	000	
129	129	0	1	1	1	1	1	0	1	1	0	1	0	0	1	0	0	1	000	
130	130	0	1	1	1	1	1	0	1	0	0	0	0	0	1	0	1	1	000	
131	131	1	1	1	0	1	1	1	0	0	0	1	1	0	0	1	0	1	000	
132	132	0	1	1	0	1	0	1	0	0	0	1	1	0	0	0	0	0	000	
133	133	1	0	0	0	1	1	1	0	1	1	1	1	0	0	1	0	1	000	
134	134	0	1	1	1	1	0	0	0	0	0	0	0	1	1	0	0	0	000	
135	135	1	1	1	0	1	1	1	0	0	0	1	1	0	0	0	1	1	000	
136	136	1	0	0	0	1	0	1	0	0	1	1	1	0	0	1	0	0	000	
137	137	1	1	1	0	1	0	0	0	0	0	1	1	0	0	0	0	0	000	
138	138	1	1	1	1	0	1	0	0	0	1	0	1	0	0	0	1	1	000	
139	139	1	1	1	0	1	0	1	0	1	1	1	1	0	0	0	0	0	000	
140	140	1	0	0	0	0	0	1	0	0	1	1	1	0	1	0	0	0	000	
141	141	1	1	1	1	1	1	0	0	1	0	0	0	1	0	0	0	1	000	
142	142	0	1	1	1	1	1	0	0	1	1	1	0	1	0	0	1	1	000	
143	143	1	1	1	1	1	1	0	0	1	1	0	0	1	0	0	0	1	000	
144	144	1	1	1	1	1	1	0	0	0	1	0	1	1	0	0	1	1	000	
145	145	1	1	1	0	1	0	0	0	0	1	1	1	0	0	0	1	1	000	
146	146	0	1	0	1	0	0	0	1	1	0	0	0	1	1	0	0	0	000	
147	147	0	1	1	1	1	1	0	0	1	0	0	0	1	1	0	1	1	000	
148	148	1	1	1	0	1	0	1	0	0	1	1	1	0	0	0	0	1	000	
149	149	1	1	0	1	1	0	0	0	1	0	1	1	1	0	0	0	1	000	
150	150	0	1	1	1	1	0	0	1	0	0	1	1	0	0	0	0	1	000	
151	151	1	1	1	0	1	0	0	0	0	0	1	1	0	0	0	1	1	000	
152	152	0	0	0	1	0	1	0	0	1	0	1	0	1	1	1	0	0	000	
153	153	1	1	1	0	1	0	1	0	0	1	1	0	0	0	0	0	1	000	
154	154	1	1	0	0	1	0	1	1	0	1	1	1	0	0	0	1	1	000	
155	155	0	1	1	0	1	0	0	0	1	0	0	1	1	0	0	0	1	000	
156	156	0	1	1	1	0	0	0	0	1	0	0	0	1	0	0	0	0	000	
157	157	0	1	1	1	1	0	0	1	1	0	0	0	1	0	0	1	1	000	
158	158	1	1	1	1	1	0	1	0	0	1	1	1	0	0	0	0	1	000	
159	159	0	1	1	1	0	0	0	0	1	0	1	1	1	1	0	0	1	000	
160	160	0	1	0	1	0	0	0	0	1	0	0	0	1	0	0	0	1	000	
161	161	0	1	1	0	1	0	0	0	0	1	1	1	0	0	0	0	0	000	
162	162	1	0	1	0	0	0	1	0	0	1	1	1	0	0	1	0	0	000	
163	163	0	1	1	1	1	0	0	1	1	0	1	1	1	0	0	1	1	000	
164	164	0	0	1	0	1	1	1	0	0	1	1	1	0	0	1	0	0	000	
165	165	0	1	1	1	1	0	0	1	1	0	1	1	1	0	0	0	1	000	
166	166	1	0	1	0	1	0	1	0	0	1	1	1	0	0	1	0	0	000	
167	167	0	0	1	1	1	0	1	0	1	1	1	1	0	0	1	1	1	000	
168	168	0	1	1	1	0	0	0	1	1	0	1	0	1	1	0	1	1	000	
169	169	1	1	0	1	0	1	0	1	1	0	0	0	1	1	1	0	1	000	
170	170	0	0	1	1	0	0	1	1	1	0	1	0	1	0	0	0	1	000	
171	171	0	1	0	1	0	0	0	1	1	0	0	0	1	1	0	0	1	000	
172	172	0	1	0	1	0	0	0	1	1	0	0	0	1	1	0	1	1	000	
173	173	0	0	1	0	1	0	1	0	0	1	1	1	0	0	0	0	1	000	
174	174	0	1	0	0	0	0	1	1	1	1	1	1	0	0	0	0	0	000	
175	175	0	1	0	0	0	0	1	1	1	1	1	1	0	0	0	0	0	000	
176	176	0	1	0	0	0	1	1	1	1	1	0	0	1	1	0	0	0	000	
177	177	0	1	0	0	1	0	0	0	0	1	1	1	0	1	0	0	0	000	
178	178	1	0	0	1	0	1	0	1	1	0	0	0	1	1	0	0	0	000	
179	179	0	1	0	0	1	0	1	1	0	0	1	1	0	0	0	0	0	000	
180	180	0	1	1	0	1	0	0	0	0	0	1	1	0	1	0	1	1	000	
181	181	0	0	0	1	0	1	0	1	1	0	1	0	1	1	1	0	0	000	
182	182	0	1	1	0	0	1	0	0	1	0	0	0	1	1	0	0	1	000	
183	183	0	1	0	0	0	0	0	1	1	0	0	0	1	1	1	0	0	000	
184	184	0	1	1	0	0	0	0	0	1	0	1	0	1	1	0	1	1	000	
185	185	0	1	0	0	1	0	0	0	1	0	1	0	0	0	0	0	0	000	
186	186	0	0	0	1	1	0	0	0	1	0	0	0	1	0	0	0	0	000	
187	187	0	0	1	1	1	0	0	0	1	0	1	1	1	0	0	1	1	000	
188	188	1	1	1	0	1	0	1	0	1	0	1	1	1	0	0	0	1	000	
189	189	1	1	1	0	0	0	0	0	1	0	1	1	1	1	0	0	1	000	
190	190	1	1	1	0	1	1	1	0	1	1	1	1	0	0	0	1	1	000	
191	191	0	1	1	1	0	0	0	0	1	0	0	0	1	0	0	1	1	000	
192	192	0	1	1	1	1	0	0	0	1	0	0	0	1	1	0	1	1	000	
193	193	0	0	1	1	1	0	0	0	0	0	1	1	1	0	0	0	0	000	
194	194	0	1	0	1	0	0	0	1	1	0	0	0	1	1	0	0	1	000	
195	195	0	0	1	1	1	1	1	0	1	0	1	1	0	0	0	0	0	000	
196	196	0	1	1	1	0	0	0	0	1	0	1	0	1	1	0	1	1	000	
197	197	1	0	1	0	1	1	1	0	1	1	1	1	0	0	1	0	0	000	
198	198	1	0	1	1	1	1	0	0	1	0	1	1	1	0	0	0	0	000	
199	199	1	1	0	1	1	0	0	0	1	0	1	1	1	1	0	0	1	000	
200	200	0	1	0	1	0	0	0	0	1	0	0	0	1	1	0	1	1	000	
201	201	1	1	0	1	1	0	1	0	1	0	1	1	1	1	0	0	1	000	
202	202	0	1	0	1	1	0	0	0	1	0	0	1	1	1	0	1	1	000	
203	203	0	1	0	1	1	0	0	0	1	0	0	0	1	1	0	1	0	000	
204	204	0	1	0	1	1	0	0	0	1	0	0	1	1	0	0	0	0	000	
205	205	1	1	1	1	1	0	0	0	1	0	1	1	1	0	0	0	1	000	
206	206	0	1	0	1	1	0	0	0	1	0	1	0	1	1	0	0	0	000	
207	207	1	1	1	0	1	0	0	0	0	0	1	1	1	0	0	0	1	000	
208	208	0	1	0	0	1	0	0	0	1	0	0	0	1	1	0	0	0	000	
209	209	1	0	1	0	1	1	1	0	0	1	1	1	0	0	1	1	1	000	
210	210	0	1	0	0	1	0	0	1	0	0	0	0	1	1	0	0	0	000	
211	211	1	0	0	1	0	1	0	0	0	1	0	1	1	0	1	1	1	000	
212	212	0	1	1	0	1	0	1	0	0	0	0	0	1	0	0	0	0	000	
213	213	0	1	1	0	1	0	1	0	0	0	0	0	1	0	0	0	0	000	
214	214	0	1	1	0	1	0	1	0	0	0	1	1	0	0	1	0	0	000	
215	215	0	0	0	1	0	0	0	0	1	0	0	0	1	1	0	0	0	000	
216	216	0	1	1	0	1	0	0	0	0	0	0	0	1	0	0	0	0	000	
217	217	0	0	0	1	0	1	0	1	1	0	0	0	0	1	1	0	0	000	
218	218	0	1	0	1	1	0	0	0	1	0	0	0	1	1	0	0	0	000	
219	219	0	0	0	1	0	0	0	1	1	0	0	0	1	1	0	0	0	000	
220	220	0	1	1	0	1	0	1	0	1	1	1	1	0	0	1	1	1	000	
221	221	0	1	1	0	1	0	1	0	1	1	0	1	1	0	0	0	0	000	
222	222	0	0	1	1	0	1	0	1	1	0	0	0	1	1	0	0	0	000	
223	223	0	0	0	1	0	1	0	0	1	1	0	0	1	0	0	0	0	000	
224	224	0	0	0	0	0	1	0	1	1	1	1	0	1	0	0	0	0	000	
225	225	0	0	0	1	0	1	0	1	1	0	0	0	1	1	0	0	0	000	
226	226	1	1	1	0	1	0	0	0	0	1	1	0	0	0	0	1	1	000	
227	227	0	0	0	1	0	1	0	1	1	0	0	0	1	0	0	0	0	000	
228	228	0	0	0	1	1	0	1	1	1	0	1	0	1	0	0	0	0	000	
229	229	0	0	0	0	1	0	0	0	0	0	0	0	1	1	0	0	0	000	
230	230	0	0	0	1	1	0	0	1	1	0	0	0	1	0	0	0	0	000	
231	231	0	0	0	0	1	0	1	0	0	1	1	0	1	0	1	0	0	000	
232	232	0	0	0	1	0	1	0	1	1	0	0	0	1	1	0	0	0	000	
233	233	0	0	0	0	1	0	0	1	1	0	0	0	1	1	0	0	0	000	
234	234	0	0	0	1	0	0	0	1	1	0	0	0	1	1	0	0	0	000	
235	235	0	0	0	1	0	0	0	0	1	0	0	1	1	0	0	0	0	000	
236	236	0	0	0	1	1	0	0	0	1	0	0	0	1	1	0	0	0	000	
237	237	1	1	1	1	1	0	1	0	1	0	0	0	0	0	0	0	0	000	
238	238	0	1	0	1	1	0	1	0	1	0	0	0	0	0	0	0	0	000	
239	239	0	1	0	1	1	0	0	0	1	0	0	0	0	1	0	0	0	000	
240	240	0	1	1	1	1	0	1	0	1	1	0	0	0	0	1	1	1	000	
241	241	0	1	0	1	0	0	0	1	1	1	1	0	1	0	0	0	0	000	
242	242	0	1	0	1	1	0	1	1	1	0	0	0	1	0	0	0	0	000	
243	243	0	1	0	1	1	1	0	1	1	0	0	0	1	0	0	0	0	000	
244	244	0	1	1	0	1	0	1	0	0	1	0	1	0	0	0	0	0	000	
245	245	0	1	0	1	0	1	0	0	1	0	0	0	1	0	0	0	0	000	
246	246	0	0	0	1	0	0	0	1	1	0	0	0	1	0	0	0	0	000	
247	247	0	1	1	1	1	0	0	0	0	1	0	0	0	0	0	0	0	000	
248	248	1	1	1	0	1	0	1	0	0	1	0	0	0	1	0	0	1	000	
249	249	0	0	0	1	0	1	0	1	1	1	0	0	1	1	0	0	1	000	
250	250	0	0	0	1	0	1	0	1	1	0	1	1	1	1	0	0	1	000	
251	251	0	1	1	1	1	0	1	0	1	1	0	0	1	1	0	1	1	000	
252	252	0	1	1	1	1	0	1	0	1	1	0	0	1	0	0	0	0	000	
253	253	0	0	1	1	1	0	1	0	1	0	0	0	1	1	0	1	1	000	
254	254	1	0	0	0	0	1	0	1	1	1	1	1	0	1	1	0	1	000	
255	255	0	1	1	0	1	0	1	0	0	1	0	1	1	0	0	0	0	000	
256	256	0	1	0	1	1	0	0	0	0	0	0	1	1	0	0	0	0	000	
257	257	0	1	1	1	1	0	0	0	0	1	0	0	1	0	0	0	0	000	
258	258	0	1	1	0	1	0	0	0	0	1	0	0	1	0	0	0	0	000	
259	259	0	1	1	0	1	0	1	0	0	1	0	1	0	0	1	0	0	000	
260	260	0	1	1	1	1	0	1	0	1	1	1	0	1	0	1	0	0	000	
261	261	1	0	0	1	0	1	0	1	1	0	0	0	1	1	0	1	1	000	
262	262	0	0	0	1	1	1	1	0	1	0	0	0	1	0	0	0	0	000	
263	263	0	0	0	1	0	1	0	1	1	0	1	0	1	1	0	1	1	000	
264	264	1	0	0	1	0	1	0	1	1	0	1	0	1	0	0	1	1	000	
265	265	0	1	0	0	1	0	1	0	1	0	0	0	1	0	0	0	1	000	
266	266	0	1	0	1	0	1	1	1	1	0	0	0	1	1	0	1	1	000	
267	267	0	1	1	0	1	0	1	0	1	1	0	0	1	0	0	1	1	000	
268	268	0	1	0	1	1	0	0	0	1	1	0	0	1	0	1	0	1	000	
269	269	0	1	0	1	1	0	0	1	1	0	0	0	1	1	0	0	1	000	
270	270	0	1	0	1	1	0	0	1	1	0	0	0	1	1	0	0	1	000	
271	271	0	1	1	1	1	0	0	1	1	0	0	0	1	1	0	1	1	000	
272	272	0	1	1	1	1	0	1	1	1	0	0	1	1	0	0	1	1	000	
273	273	1	1	0	1	0	1	0	1	1	0	0	0	1	1	0	1	1	000	
274	274	0	1	1	1	1	1	0	0	1	0	0	0	1	0	0	0	1	000	
275	275	0	1	1	1	1	0	0	0	1	1	0	0	1	0	0	0	1	000	
276	276	1	0	1	0	0	0	1	0	0	1	1	1	0	0	1	0	0	000	
277	277	0	1	1	0	1	0	1	1	1	1	1	0	1	0	0	1	1	000	
278	278	0	0	1	0	1	0	1	0	0	1	1	0	0	0	0	0	0	000	
279	279	0	1	0	1	1	1	0	1	1	0	1	0	1	0	0	0	0	000	
280	280	0	1	0	1	1	1	0	1	1	0	0	0	1	1	0	0	0	000	
281	281	0	1	0	1	0	1	0	1	1	0	0	0	1	1	0	0	0	000	
282	282	0	0	1	0	1	0	1	0	1	0	1	0	1	0	1	0	0	000	
283	283	0	1	0	1	1	0	0	0	1	0	1	0	1	0	0	0	0	000	
284	284	0	1	0	0	1	0	0	1	1	0	0	0	1	0	0	0	0	000	
285	285	0	1	0	1	1	0	0	1	1	0	0	0	1	0	0	0	0	000	
286	286	0	0	1	0	0	0	1	1	1	1	1	1	0	0	1	0	1	000	
287	287	1	1	1	1	1	0	1	1	1	0	1	1	1	0	0	1	1	000	
288	288	0	1	0	1	1	1	0	1	1	0	0	0	1	1	0	0	0	000	
289	289	0	0	0	1	1	0	0	1	1	0	0	0	1	0	0	0	0	000	
290	290	0	0	0	1	1	0	0	1	1	0	0	0	1	0	0	0	0	000	
291	291	1	0	1	1	1	0	1	1	1	0	0	0	0	0	0	0	0	000	
292	292	0	1	1	1	1	1	1	1	1	0	0	0	1	0	0	0	0	000	
293	293	0	1	1	1	1	0	1	1	1	0	0	0	1	0	0	0	0	000	
294	294	0	1	1	1	1	0	1	1	1	0	0	0	1	0	0	0	0	000	
295	295	0	1	1	1	1	0	1	1	1	0	0	0	1	0	0	0	0	000	
296	296	0	1	0	1	1	0	0	1	1	0	0	0	1	0	0	0	0	000	
297	297	0	1	0	1	1	0	0	1	1	0	0	0	1	0	0	0	0	000	
298	298	1	1	0	0	0	1	0	1	0	0	1	0	1	1	1	1	1	000	
299	299	0	0	1	1	1	0	1	0	0	1	1	1	0	0	0	1	1	000	
300	300	0	1	0	1	1	1	1	0	1	0	0	0	1	0	0	0	0	000	
301	301	0	1	0	1	1	0	1	0	1	0	0	0	1	0	0	0	0	000	
302	302	0	1	1	1	1	0	1	0	1	0	1	0	0	0	0	1	1	000	
303	303	1	1	1	1	1	0	1	0	1	0	0	1	0	0	0	0	0	000	
304	304	0	1	0	1	1	1	0	1	0	0	0	0	1	1	0	0	0	000	
305	305	0	0	1	1	1	0	1	0	0	0	0	1	0	0	1	0	0	000	
306	306	0	1	1	1	1	0	1	0	1	1	0	1	0	0	1	0	0	000	
307	307	0	1	1	1	1	1	0	1	1	0	0	0	1	0	0	0	0	000	
308	308	0	1	1	1	1	1	0	1	1	0	0	0	1	1	1	0	0	000	
309	309	0	1	1	1	1	0	1	1	1	0	0	1	1	0	0	0	0	000	
310	310	1	1	1	1	1	0	1	0	1	1	0	1	0	0	0	1	1	000	
311	311	0	1	1	1	1	0	1	0	1	0	0	1	1	1	0	0	0	000	
312	312	0	1	1	1	0	1	0	1	1	0	0	1	1	1	0	0	0	000	
313	313	0	1	1	1	1	0	1	0	1	1	0	1	1	0	0	0	1	000	
314	314	0	1	1	1	1	0	0	1	1	1	0	1	1	1	0	0	1	000	
315	315	0	1	1	1	1	0	0	1	1	1	0	1	1	1	0	0	1	000	
316	316	0	1	1	1	1	0	1	0	0	1	0	1	1	0	1	0	1	000	
317	317	0	1	0	0	0	1	0	1	1	0	0	0	1	1	0	0	0	000	
318	318	0	1	0	0	0	1	0	1	1	0	1	0	1	1	0	0	0	000	
319	319	0	1	1	1	1	0	0	0	0	1	0	1	1	0	0	0	1	000	
320	320	0	1	1	1	1	0	0	1	1	1	0	1	1	0	0	0	1	000	
321	321	0	1	1	1	1	0	0	1	1	1	0	0	1	0	0	0	1	000	
322	322	0	1	0	1	1	0	0	1	1	1	0	0	1	0	0	1	1	000	
323	323	0	1	1	0	1	0	0	0	0	1	0	1	1	0	0	0	0	000	
324	324	0	1	1	1	1	0	0	0	1	1	0	1	1	0	0	1	1	000	
325	325	0	1	1	1	1	0	1	0	0	1	0	1	1	0	1	0	0	000	
326	326	0	1	1	1	1	1	1	0	1	0	0	0	1	1	1	1	1	000	
327	327	0	1	1	1	1	1	0	0	1	0	0	0	1	1	1	1	1	000	
328	328	0	0	1	0	1	1	1	0	1	0	0	1	1	1	1	1	1	000	
329	329	1	0	0	1	0	1	0	1	1	0	0	0	1	1	0	0	1	000	
330	330	0	1	0	1	0	1	0	1	1	0	0	0	1	0	0	0	1	000	
331	331	0	1	1	0	1	1	1	0	1	1	0	1	1	0	0	0	1	000	
332	332	1	1	0	1	1	1	0	0	1	1	0	0	1	0	0	0	1	000	
333	333	0	0	0	1	1	1	0	0	1	0	0	0	1	1	0	0	1	000	
334	334	1	1	0	1	0	1	0	1	1	0	1	0	1	1	0	0	1	000	
335	335	1	1	1	0	1	0	1	0	0	1	0	1	0	0	1	0	0	000	
336	336	0	1	0	1	0	1	0	1	1	0	0	0	1	1	0	0	1	000	
337	337	0	1	1	1	0	0	0	1	1	1	0	0	0	1	0	1	1	000	
338	338	0	1	0	1	0	0	1	0	1	1	0	0	1	1	0	1	0	000	
339	339	0	1	1	1	0	0	1	0	1	1	0	0	1	0	0	0	0	000	
340	340	0	1	0	1	0	0	0	1	1	1	0	0	1	1	0	0	1	000	
341	341	0	0	0	1	0	1	0	0	1	1	1	0	1	1	0	0	0	000	
342	342	0	1	1	0	1	0	1	0	0	1	0	1	0	0	0	0	0	000	
343	343	0	1	1	0	1	0	0	1	1	1	0	0	1	0	0	0	1	000	
344	344	0	1	0	0	1	0	0	0	1	1	0	0	1	0	0	0	0	000	
345	345	0	1	1	0	1	0	1	1	1	1	0	1	1	0	0	0	1	000	
346	346	0	1	0	1	0	0	0	1	1	0	1	1	1	1	0	1	1	000	
347	347	0	1	0	0	0	0	0	1	1	0	0	0	1	1	0	1	1	000	
348	348	0	1	1	0	1	0	1	1	1	1	0	1	0	0	0	0	1	000	
349	349	0	1	1	0	1	0	1	1	1	1	0	1	1	0	0	1	1	000	
350	350	0	1	1	0	1	0	1	0	0	1	0	1	0	0	0	0	0	000	
351	351	0	1	1	1	1	0	0	0	0	1	0	0	0	0	0	0	0	000	
352	352	0	1	1	0	1	0	1	0	0	1	0	1	0	0	0	0	0	000	
353	353	0	1	1	0	1	0	1	0	0	1	0	1	1	0	0	0	1	000	
354	354	0	0	0	1	0	1	0	1	1	0	0	0	1	1	0	0	0	000	
355	355	0	1	1	1	1	0	0	0	0	0	0	1	1	0	0	0	0	000	
356	356	0	0	1	1	1	1	0	0	1	0	0	1	1	0	0	0	0	000	
357	357	0	0	0	1	0	0	0	0	0	0	0	1	0	0	0	0	0	000	
358	358	0	0	0	1	1	0	0	1	0	0	0	0	0	0	0	0	0	000	
359	359	0	0	0	1	0	1	0	1	0	0	0	0	1	0	1	0	0	000	
360	360	0	1	1	1	1	0	0	1	0	1	0	1	0	0	0	0	0	000	
361	361	0	1	1	1	0	0	0	1	0	0	0	0	1	0	0	0	0	000	
362	362	0	0	1	1	0	0	0	1	1	0	0	1	1	0	0	0	0	000	
363	363	0	1	0	1	0	0	0	1	1	0	0	0	1	0	0	0	0	000	
364	364	0	1	1	1	0	0	0	1	1	1	0	1	1	0	0	0	0	000	
365	365	0	0	0	1	0	0	0	1	1	1	0	1	1	0	0	0	0	000	
366	366	0	1	1	0	0	1	1	1	1	1	0	1	1	0	0	0	1	000	
367	367	0	1	1	0	1	0	1	1	0	1	0	1	1	0	0	1	1	000	
368	368	0	1	0	0	1	0	0	1	1	1	1	0	1	0	0	0	0	000	
369	369	0	1	1	0	0	0	0	1	0	1	0	1	1	0	0	0	0	000	
370	370	0	1	0	1	0	0	0	1	0	1	1	0	1	0	0	0	0	000	
371	371	1	1	0	1	0	0	0	1	1	1	1	0	1	0	0	0	0	000	
372	372	1	1	0	1	0	1	0	1	1	0	1	0	1	0	0	0	1	000	
373	373	0	1	0	1	0	0	0	1	0	1	1	0	1	0	0	0	0	000	
374	374	0	1	1	1	1	0	1	0	0	1	0	1	1	0	1	0	0	000	
375	375	0	1	0	1	0	0	0	1	1	1	1	0	1	0	0	0	0	000	
376	376	0	1	1	1	1	0	0	1	1	1	0	1	1	0	0	0	0	000	
377	377	0	1	1	1	1	0	1	1	0	1	0	1	1	0	0	0	0	000	
378	378	1	1	0	1	1	0	0	1	1	1	0	0	1	0	0	0	0	000	
379	379	0	0	1	0	0	1	1	0	0	1	1	1	0	1	1	1	1	000	
380	380	1	1	0	1	1	0	0	1	1	0	0	0	1	0	0	0	0	000	
381	381	0	1	1	1	1	0	1	0	0	1	0	0	0	0	1	0	0	000	
382	382	0	1	1	0	1	0	0	1	0	1	0	0	1	0	0	0	0	000	
383	383	0	1	0	1	0	1	0	1	1	0	0	0	1	0	0	1	0	000	
384	384	0	1	0	1	0	0	0	0	0	0	0	0	0	1	1	0	0	000	
385	385	0	1	1	0	1	1	1	0	1	1	0	0	1	0	0	0	1	000	
386	386	0	1	1	0	1	1	1	1	1	0	1	1	1	0	0	0	1	000	
387	387	0	0	0	0	1	1	0	1	1	0	0	0	1	0	0	1	1	000	
388	388	0	0	0	1	1	1	0	1	1	0	0	0	1	0	0	1	1	000	
389	389	0	0	0	1	1	1	0	1	1	0	0	0	1	0	0	0	1	000	
390	390	0	0	0	1	1	1	0	1	1	0	0	0	1	0	0	0	1	000	
391	391	0	0	0	1	0	1	0	1	1	0	1	0	1	0	0	0	0	000	
392	392	0	1	0	1	1	1	0	1	1	0	0	0	1	0	0	0	1	000	
393	393	0	1	0	1	1	0	0	1	1	0	0	0	1	0	0	0	1	000	
394	394	0	1	1	1	1	0	0	0	0	0	0	1	0	0	0	0	1	000	
395	395	0	0	0	1	0	0	0	1	1	0	0	0	1	0	0	0	0	000	
396	396	0	0	0	1	0	0	0	1	1	0	0	0	1	0	0	0	0	000	
397	397	0	0	0	1	1	0	0	1	1	0	0	0	1	0	0	1	1	000	
398	398	1	1	1	0	1	0	1	0	0	1	1	1	0	1	1	0	0	000	
399	399	0	0	1	1	1	0	0	1	1	0	0	0	1	0	0	1	1	000	
400	400	0	0	0	1	1	0	0	1	1	0	0	0	1	0	0	0	1	000	
401	401	0	1	0	1	0	0	0	1	1	0	0	0	1	0	0	1	1	000	
402	402	0	1	0	1	0	0	1	1	0	0	0	0	1	0	0	1	1	000	
403	403	0	0	0	1	0	1	0	1	1	0	0	0	1	0	0	1	1	000	
404	404	0	0	0	1	0	1	0	1	1	0	0	0	1	0	0	0	1	000	
405	405	0	0	0	1	0	1	0	1	1	1	0	0	1	0	0	0	1	000	
406	406	0	1	1	0	1	0	1	0	0	0	0	1	0	1	1	0	0	000	
407	407	0	0	0	1	0	1	0	1	1	1	1	0	1	1	0	0	1	000	
408	408	0	0	0	1	0	1	0	0	1	0	0	1	1	1	0	1	1	000	
409	409	0	0	0	1	0	1	0	1	1	0	0	1	1	0	0	0	1	000	
410	410	0	0	0	1	0	1	0	1	0	0	0	1	1	0	0	1	1	000	
411	411	0	1	0	1	1	1	1	1	0	0	0	1	1	0	0	0	1	000	
412	412	0	1	0	1	1	1	0	1	1	1	0	0	1	0	0	1	1	000	
413	413	0	1	0	1	0	1	0	1	1	0	0	1	0	0	0	0	0	000	
414	414	0	1	0	1	0	1	0	1	1	0	0	1	0	0	0	0	0	000	
415	415	0	1	0	1	0	0	0	1	1	0	0	0	1	0	0	0	0	000	
